# Hz S RI R 50.00
1.000000000000000000e+05	1.477350000000937505e-05	-4.177110000000000398e-05	9.999394865563129287e-01	-1.028346561468346856e-04	9.999394865563129287e-01	-1.028346561468346856e-04	3.128878074543280921e-04	-2.415446889579286611e-05
4.100780155999999959e+06	2.042270000000013228e-04	2.058349999999997259e-04	9.997565251188916813e-01	-6.592504448899779226e-03	9.997565251188916813e-01	-6.592504448899779226e-03	2.742405755509378317e-04	1.909737310521900187e-04
8.101560311999999918e+06	1.360160000000165681e-04	2.916890000000012251e-04	9.995945303704498741e-01	-1.296419836839187573e-02	9.995945303704498741e-01	-1.296419836839187573e-02	3.911930125331760690e-04	2.216577728901066740e-04
1.210234047000000067e+07	1.645000000000118590e-04	3.048770000000020075e-04	9.993831169783079504e-01	-1.927098495099914544e-02	9.993831169783079504e-01	-1.927098495099914544e-02	3.599238109771254633e-04	2.593787706918577671e-04
1.610312061999999918e+07	1.397340000000024673e-04	3.486539999999968553e-04	9.992348485311424167e-01	-2.557346328967855312e-02	9.992348485311424167e-01	-2.557346328967855312e-02	4.061680566909654983e-04	2.320760392368493978e-04
2.010390078000000119e+07	9.327859999996856999e-05	3.585529999999975681e-04	9.989969604033055450e-01	-3.185504936497068201e-02	9.989969604033055450e-01	-3.185504936497068201e-02	4.894927811251814729e-04	3.635309324677188001e-04
2.410468094000000134e+07	7.828720000002681182e-05	4.346179999999977284e-04	9.987362747782184691e-01	-3.820569963542867764e-02	9.987362747782184691e-01	-3.820569963542867764e-02	3.304113671428322136e-04	1.787501509931927021e-04
2.810546108999999985e+07	1.275259999999888176e-04	3.859979999999986174e-04	9.984232272948952991e-01	-4.447492165244005397e-02	9.984232272948952991e-01	-4.447492165244005397e-02	5.566273446848290412e-04	6.464913749636924884e-04
3.210624125000000000e+07	2.474749999999970029e-04	4.045240000000034338e-04	9.980289334840927173e-01	-5.077050186321607067e-02	9.980289334840927173e-01	-5.077050186321607067e-02	5.485018588860398302e-04	7.373019930464031315e-04
3.610702139999999851e+07	3.159299999999644034e-04	4.577600000000016075e-04	9.976670977949535501e-01	-5.704020421305209393e-02	9.976670977949535501e-01	-5.704020421305209393e-02	6.765888179177573887e-04	7.023924671554843601e-04
4.010780156000000238e+07	4.099530000000184415e-04	5.701929999999966192e-04	9.972360005644050895e-01	-6.328930658931668229e-02	9.972360005644050895e-01	-6.328930658931668229e-02	8.726549525877134051e-04	6.769554586670221410e-04
4.410858171999999881e+07	3.770979999999641945e-04	7.141089999999905569e-04	9.967471867215086379e-01	-6.954347527454972366e-02	9.967471867215086379e-01	-6.954347527454972366e-02	1.163688488145794581e-03	6.234314832102853983e-04
4.810936186999999732e+07	4.683180000000233215e-04	8.220899999999975449e-04	9.962381784125770023e-01	-7.582533753827813694e-02	9.962381784125770023e-01	-7.582533753827813694e-02	1.008677352687245218e-03	6.306690135263408976e-04
5.211014203000000119e+07	3.734650000000168217e-04	9.036769999999916259e-04	9.957739532487202005e-01	-8.206603843839989365e-02	9.957739532487202005e-01	-8.206603843839989365e-02	1.234038155498379816e-03	5.418149564215133307e-04
5.611092217999999970e+07	3.095079999999585888e-04	1.012716999999996315e-03	9.951880934375323395e-01	-8.833724794648904755e-02	9.951880934375323395e-01	-8.833724794648904755e-02	1.267867730679912838e-03	4.409501007396200538e-04
6.011170234000000358e+07	2.715180000000261273e-04	1.037585000000007529e-03	9.946447925501794574e-01	-9.458152128617670906e-02	9.946447925501794574e-01	-9.458152128617670906e-02	1.194168122522106402e-03	4.451340042092859391e-04
6.411248250000000000e+07	2.432190000000167274e-04	1.036731000000012948e-03	9.939540472642258706e-01	-1.008168696336535219e-01	9.939540472642258706e-01	-1.008168696336535219e-01	1.192267090536305993e-03	4.285913545885738116e-04
6.811326265000000596e+07	1.629380000000011427e-04	1.024553000000011371e-03	9.932455130307283886e-01	-1.070589568282724474e-01	9.932455130307283886e-01	-1.070589568282724474e-01	1.232007265827089748e-03	5.133036486317272152e-04
7.211404281000000238e+07	2.049549999999511485e-04	9.125070000000068404e-04	9.925671492649279504e-01	-1.133124246133926094e-01	9.925671492649279504e-01	-1.133124246133926094e-01	1.181852378437152438e-03	6.649468044089793407e-04
7.611482295999999344e+07	2.509510000000545523e-04	8.500240000000048842e-04	9.918175768125346847e-01	-1.195411356542055992e-01	9.918175768125346847e-01	-1.195411356542055992e-01	1.218046038369976439e-03	6.653665605701839392e-04
8.011560312000000477e+07	4.178660000000442628e-04	9.361830000000069844e-04	9.909630818650306816e-01	-1.257820907775921704e-01	9.909630818650306816e-01	-1.257820907775921704e-01	1.159684331438249477e-03	6.690532368553916021e-04
8.411638328000000119e+07	4.240229999999960316e-04	9.612119999999888583e-04	9.901254152345712045e-01	-1.319857596208385553e-01	9.901254152345712045e-01	-1.319857596208385553e-01	1.366721992965024002e-03	6.730050941078035386e-04
8.811716343000000715e+07	5.600329999999598130e-04	9.774579999999868322e-04	9.892789964306801798e-01	-1.381964324827163748e-01	9.892789964306801798e-01	-1.381964324827163748e-01	1.444068770752249091e-03	7.356549636524163010e-04
9.211794359000000358e+07	6.195709999999854389e-04	1.077800999999989351e-03	9.883348774205760190e-01	-1.444422458046083768e-01	9.883348774205760190e-01	-1.444422458046083768e-01	1.556780661921294481e-03	6.267366660126183443e-04
9.611872373999999464e+07	5.834160000000034822e-04	1.181786000000017989e-03	9.873766392150410409e-01	-1.506215183141535741e-01	9.873766392150410409e-01	-1.506215183141535741e-01	1.727473264051847864e-03	5.933281474812092740e-04
1.001195039000000060e+08	5.715360000000391238e-04	1.302360000000002405e-03	9.863871866677380584e-01	-1.567963233327545058e-01	9.863871866677380584e-01	-1.567963233327545058e-01	1.749488370983647229e-03	4.678654004940744075e-04
1.041202840999999940e+08	5.439069999999544044e-04	1.273689999999993994e-03	9.853354508341067852e-01	-1.629651058202624125e-01	9.853354508341067852e-01	-1.629651058202624125e-01	1.743419129390982912e-03	5.568567844848219340e-04
1.081210642000000030e+08	5.148529999999815806e-04	1.391548000000020213e-03	9.843109157516763963e-01	-1.691792755256132375e-01	9.843109157516763963e-01	-1.691792755256132375e-01	1.724590005711480138e-03	4.911813910674299975e-04
1.121218444000000060e+08	4.756769999999523827e-04	1.317334999999975054e-03	9.831970276047143908e-01	-1.753394971848871997e-01	9.831970276047143908e-01	-1.753394971848871997e-01	1.679063507790167289e-03	5.202460691670863710e-04
1.161226245000000000e+08	5.299949999999495950e-04	1.281943999999979322e-03	9.820429581971952260e-01	-1.814687598140513614e-01	9.820429581971952260e-01	-1.814687598140513614e-01	1.661901187199257314e-03	5.920109426096610257e-04
1.201234047000000030e+08	5.689300000000228116e-04	1.281693999999999889e-03	9.808305548704246979e-01	-1.876336363672867769e-01	9.808305548704246979e-01	-1.876336363672867769e-01	1.584386481878605939e-03	6.084755288277533206e-04
1.241241847999999970e+08	6.665729999999481237e-04	1.196909999999995478e-03	9.795958733744347668e-01	-1.937983419561226939e-01	9.795958733744347668e-01	-1.937983419561226939e-01	1.530093006010810937e-03	7.173543554946129304e-04
1.281249650000000000e+08	7.769410000000314016e-04	1.266721999999997688e-03	9.783442919216964739e-01	-1.998966849053625816e-01	9.783442919216964739e-01	-1.998966849053625816e-01	1.482349107006586094e-03	6.702479551216698056e-04
1.321257450999999940e+08	8.313210000000514910e-04	1.292834999999992185e-03	9.770387660663151230e-01	-2.060592088519357101e-01	9.770387660663151230e-01	-2.060592088519357101e-01	1.700762851109734533e-03	6.808228668923806690e-04
1.361265253000000119e+08	9.495779999999509613e-04	1.376325000000011567e-03	9.757295086059261102e-01	-2.121497344699245224e-01	9.757295086059261102e-01	-2.121497344699245224e-01	1.801885851144620961e-03	4.935100049585177100e-04
1.401273055000000000e+08	9.896569999999771383e-04	1.514911999999979386e-03	9.742705377676847966e-01	-2.182561457408993821e-01	9.742705377676847966e-01	-2.182561457408993821e-01	1.927904658532841138e-03	5.101618331762082254e-04
1.441280855999999940e+08	9.998549999999939430e-04	1.575883000000000145e-03	9.728728063063355469e-01	-2.243782916129880567e-01	9.728728063063355469e-01	-2.243782916129880567e-01	1.988800518041047762e-03	4.016996277768463937e-04
1.481288658000000119e+08	1.029579000000002686e-03	1.667478000000000233e-03	9.715011334113496932e-01	-2.304964576948196897e-01	9.715011334113496932e-01	-2.304964576948196897e-01	1.923723311275363354e-03	4.506242780708912920e-04
1.521296459000000060e+08	9.205599999999587550e-04	1.763398000000027327e-03	9.699661294895883801e-01	-2.365231316317037980e-01	9.699661294895883801e-01	-2.365231316317037980e-01	2.024972723684399616e-03	3.766757549994698790e-04
1.561304260999999940e+08	8.948100000000234252e-04	1.768880999999999926e-03	9.684299557366977673e-01	-2.426248030730673022e-01	9.684299557366977673e-01	-2.426248030730673022e-01	1.959305059407541547e-03	3.930954756209671880e-04
1.601312061999999881e+08	8.659460000000063218e-04	1.721026000000014161e-03	9.668896008617653415e-01	-2.486713276156114205e-01	9.668896008617653415e-01	-2.486713276156114205e-01	2.006447770881806050e-03	5.367068165710965144e-04
1.641319864000000060e+08	9.230129999999723330e-04	1.688617000000003365e-03	9.652834783886169445e-01	-2.547681332722171454e-01	9.652834783886169445e-01	-2.547681332722171454e-01	1.886058211731159217e-03	6.256445345292590329e-04
1.681327665999999940e+08	9.038110000000321165e-04	1.670818000000018344e-03	9.635905258536668905e-01	-2.608347814109659990e-01	9.635905258536668905e-01	-2.608347814109659990e-01	1.977806134936266943e-03	6.148209124739285273e-04
1.721335466999999881e+08	9.414669999999740642e-04	1.633324000000047072e-03	9.619081395663897638e-01	-2.668339755641023769e-01	9.619081395663897638e-01	-2.668339755641023769e-01	2.177414225933072944e-03	6.870813963056740178e-04
1.761343269000000060e+08	1.115437000000052414e-03	1.650711999999998625e-03	9.602069247301338040e-01	-2.728531448705701079e-01	9.602069247301338040e-01	-2.728531448705701079e-01	2.154480361402256929e-03	6.407116999886006917e-04
1.801351070000000000e+08	1.182644000000010465e-03	1.649817999999969587e-03	9.584167536213695771e-01	-2.788850008642542733e-01	9.584167536213695771e-01	-2.788850008642542733e-01	2.278188139929362803e-03	6.238174828821742767e-04
1.841358871999999881e+08	1.214157000000048135e-03	1.685673999999970580e-03	9.566522132692640845e-01	-2.848697965053659242e-01	9.566522132692640845e-01	-2.848697965053659242e-01	2.414043474459347076e-03	4.906442133662507069e-04
1.881366673000000119e+08	1.202374999999977333e-03	1.798721000000003123e-03	9.548056576845083132e-01	-2.908679235058061474e-01	9.548056576845083132e-01	-2.908679235058061474e-01	2.532881229919995217e-03	4.165240908706539227e-04
1.921374475000000000e+08	1.308115000000054096e-03	1.953446000000025329e-03	9.529598536851262569e-01	-2.968464579171686823e-01	9.529598536851262569e-01	-2.968464579171686823e-01	2.478637361525063906e-03	2.479195468974794338e-04
1.961382275999999940e+08	1.310546000000023525e-03	1.961805999999954864e-03	9.510887631202131764e-01	-3.027978134189131532e-01	9.510887631202131764e-01	-3.027978134189131532e-01	2.425420240158580702e-03	3.677395099481284941e-04
2.001390078000000119e+08	1.351725000000025389e-03	2.007647000000001292e-03	9.490949670007187144e-01	-3.087774978513853630e-01	9.490949670007187144e-01	-3.087774978513853630e-01	2.245435424675203476e-03	3.019097512160048196e-04
2.041397880000000000e+08	1.253068000000023829e-03	2.041944999999989463e-03	9.471069086711928486e-01	-3.147017741324210638e-01	9.471069086711928486e-01	-3.147017741324210638e-01	2.242414766257631430e-03	3.458218810636769398e-04
2.081405680999999940e+08	1.280323999999999351e-03	2.029211999999946947e-03	9.451432665463370686e-01	-3.206348149159928829e-01	9.451432665463370686e-01	-3.206348149159928829e-01	2.265174367589244640e-03	3.477222728105526474e-04
2.121413483000000119e+08	1.292489000000007771e-03	1.991709000000008167e-03	9.430707678126948323e-01	-3.265351067470320112e-01	9.430707678126948323e-01	-3.265351067470320112e-01	2.237627541519932907e-03	3.942815888678932647e-04
2.161421284000000060e+08	1.250364999999975524e-03	2.031499999999964324e-03	9.410035890435922701e-01	-3.324217610040797743e-01	9.410035890435922701e-01	-3.324217610040797743e-01	2.430670014185276444e-03	3.276639147572182800e-04
2.201429085999999940e+08	1.384759999999985326e-03	2.045465999999995788e-03	9.388382351626295419e-01	-3.383189772901127879e-01	9.388382351626295419e-01	-3.383189772901127879e-01	2.465062221078624227e-03	3.120470516783362819e-04
2.241436886999999881e+08	1.448369000000005336e-03	1.988505000000029277e-03	9.366838154241361458e-01	-3.441810266487763115e-01	9.366838154241361458e-01	-3.441810266487763115e-01	2.596432944535388351e-03	3.156564832540317226e-04
2.281444689000000060e+08	1.450413000000039688e-03	2.042369999999959617e-03	9.344850753824753831e-01	-3.500250411623830882e-01	9.344850753824753831e-01	-3.500250411623830882e-01	2.712609359049508381e-03	2.078075150803244866e-04
2.321452490000000000e+08	1.521513000000029869e-03	2.091873000000021854e-03	9.322279839304540294e-01	-3.559134519579298939e-01	9.322279839304540294e-01	-3.559134519579298939e-01	2.804984039166207553e-03	4.698103674569934114e-05
2.361460291999999881e+08	1.550818000000009789e-03	2.191253999999975832e-03	9.299645283052928590e-01	-3.617609410073563403e-01	9.299645283052928590e-01	-3.617609410073563403e-01	2.886591887402397208e-03	4.015444928463221194e-05
2.401468094000000060e+08	1.461828000000053862e-03	2.239266999999989238e-03	9.276441474788956754e-01	-3.675533807054193747e-01	9.276441474788956754e-01	-3.675533807054193747e-01	2.857176670727956582e-03	-6.835022382792842188e-05
2.441475895000000000e+08	1.521334999999957461e-03	2.250618000000037099e-03	9.252790901894056841e-01	-3.733325314474730261e-01	9.252790901894056841e-01	-3.733325314474730261e-01	2.703829117700640508e-03	-3.978805149533210656e-05
2.481483696999999881e+08	1.528438999999992554e-03	2.228224000000000871e-03	9.228813109784369528e-01	-3.791398439078723093e-01	9.228813109784369528e-01	-3.791398439078723093e-01	2.697397017710117910e-03	-4.284528938302656180e-05
2.521491498000000119e+08	1.484645999999978589e-03	2.224776000000039389e-03	9.205049990605882471e-01	-3.849413718726612532e-01	9.205049990605882471e-01	-3.849413718726612532e-01	2.658795701487579217e-03	8.890761996763110048e-05
2.561499300000000000e+08	1.530359999999952869e-03	2.113464000000009335e-03	9.180832096777193918e-01	-3.906830506627759769e-01	9.180832096777193918e-01	-3.906830506627759769e-01	2.602204785725927352e-03	1.684128807878150242e-04
2.601507100999999940e+08	1.640242000000013967e-03	2.140502000000044092e-03	9.155473471075017411e-01	-3.963932767361350029e-01	9.155473471075017411e-01	-3.963932767361350029e-01	2.486698861660781214e-03	6.814267080062249952e-05
2.641514903000000119e+08	1.643546000000051027e-03	2.110550000000044769e-03	9.130093849019099705e-01	-4.021336200131787053e-01	9.130093849019099705e-01	-4.021336200131787053e-01	2.648718922522272107e-03	4.435378136229020489e-05
2.681522705000000000e+08	1.713901000000018094e-03	2.062274000000030149e-03	9.104299405829692216e-01	-4.078310009015625459e-01	9.104299405829692216e-01	-4.078310009015625459e-01	2.670764500755653907e-03	-9.857421992211993882e-05
2.721530506000000238e+08	1.759813000000054473e-03	2.152390999999975740e-03	9.078121648311529013e-01	-4.135537130911280945e-01	9.078121648311529013e-01	-4.135537130911280945e-01	2.867079618043807780e-03	-1.435644950022365706e-04
2.761538308000000119e+08	1.797524999999966511e-03	2.062293000000048337e-03	9.051836081816310164e-01	-4.192672401297661278e-01	9.051836081816310164e-01	-4.192672401297661278e-01	3.018752184627480385e-03	-2.422056277360743869e-04
2.801546108999999762e+08	1.800208999999997062e-03	2.268083000000031824e-03	9.025342163214788993e-01	-4.249197978953245802e-01	9.025342163214788993e-01	-4.249197978953245802e-01	3.186307130803980696e-03	-4.307968765565853460e-04
2.841553911000000238e+08	1.835919000000018958e-03	2.253976999999963027e-03	8.998840227310286322e-01	-4.305572066877618176e-01	8.998840227310286322e-01	-4.305572066877618176e-01	3.054608878970267553e-03	-3.803274562992420629e-04
2.881561711999999881e+08	1.854817000000008598e-03	2.375585999999984665e-03	8.971158216034719191e-01	-4.361470923917136755e-01	8.971158216034719191e-01	-4.361470923917136755e-01	3.020147970373784300e-03	-4.257895997303666989e-04
2.921569513999999762e+08	1.873248999999965747e-03	2.354458999999975433e-03	8.943190206152316080e-01	-4.417461411626694701e-01	8.943190206152316080e-01	-4.417461411626694701e-01	2.855196497029516018e-03	-3.434101088964948423e-04
2.961577315000000000e+08	1.828653000000013623e-03	2.237556999999945184e-03	8.915173122415132045e-01	-4.473512502962643800e-01	8.915173122415132045e-01	-4.473512502962643800e-01	2.764463489424724262e-03	-1.440480851994877919e-04
3.001585116999999881e+08	1.836327999999998184e-03	2.280308000000008661e-03	8.887082358381596103e-01	-4.529382207070688504e-01	8.887082358381596103e-01	-4.529382207070688504e-01	2.600739316539812506e-03	-1.234058715427930556e-04
3.041592918999999762e+08	1.866664000000017648e-03	2.181941999999992710e-03	8.858330206163024245e-01	-4.584768982405362792e-01	8.858330206163024245e-01	-4.584768982405362792e-01	2.612252481466576046e-03	-7.788815359754562226e-05
3.081600720000000000e+08	2.012193999999967176e-03	2.114422000000004687e-03	8.829027838126571881e-01	-4.639907180326469649e-01	8.829027838126571881e-01	-4.639907180326469649e-01	2.614601901268459420e-03	-6.076487587366617357e-05
3.121608521999999881e+08	2.055236999999987546e-03	2.197875000000015788e-03	8.799044722305870980e-01	-4.694958138073538345e-01	8.799044722305870980e-01	-4.694958138073538345e-01	2.711905666102754249e-03	-1.603930886658845242e-04
3.161616323000000119e+08	2.264546000000033921e-03	2.096679999999961908e-03	8.768763110478909883e-01	-4.750372355616680475e-01	8.768763110478909883e-01	-4.750372355616680475e-01	2.799887578073238618e-03	-3.531915822233425498e-04
3.201624125000000000e+08	2.245614000000006882e-03	2.218524999999971214e-03	8.738957376284327561e-01	-4.805410942913763139e-01	8.738957376284327561e-01	-4.805410942913763139e-01	3.011293980597395774e-03	-6.086438690053702335e-04
3.241631926000000238e+08	2.322779999999968325e-03	2.256108999999950192e-03	8.708912773635696380e-01	-4.860388654827544341e-01	8.708912773635696380e-01	-4.860388654827544341e-01	3.103115731078702824e-03	-8.008770764242975236e-04
3.281639728000000119e+08	2.354815999999981813e-03	2.305444999999961119e-03	8.677795720888775710e-01	-4.914853045181860614e-01	8.677795720888775710e-01	-4.914853045181860614e-01	3.321310815700508068e-03	-7.445613685854767308e-04
3.321647530000000000e+08	2.301796000000022602e-03	2.469052999999998832e-03	8.646372367568753159e-01	-4.968228179695786673e-01	8.646372367568753159e-01	-4.968228179695786673e-01	3.326357530058577164e-03	-8.924030377256359295e-04
3.361655331000000238e+08	2.203453000000021866e-03	2.417149000000007319e-03	8.615088569025757259e-01	-5.022545187446808557e-01	8.615088569025757259e-01	-5.022545187446808557e-01	3.318482199403755429e-03	-7.042223344490493005e-04
3.401663133000000119e+08	2.203104999999982994e-03	2.429959999999954136e-03	8.583263002541703379e-01	-5.076925169892562151e-01	8.583263002541703379e-01	-5.076925169892562151e-01	3.172054628882375535e-03	-6.683387298844331494e-04
3.441670933999999762e+08	2.052741999999996726e-03	2.374647999999978786e-03	8.550881627781368177e-01	-5.130220290503512137e-01	8.550881627781368177e-01	-5.130220290503512137e-01	3.125102147413122769e-03	-4.675647224960558868e-04
