# Hz S RI R 50.00
1.000000000000000000e+05	6.641039999999431842e-05	-6.630640000000001012e-04	9.997623729845119822e-01	3.676469943927068587e-04	9.997623729845119822e-01	3.676469943927068587e-04	-9.699470471435898424e-05	6.188256700951886864e-04
4.100780155999999959e+06	5.032640000002255799e-05	1.010209999999997770e-04	9.999107118714423148e-01	-6.478927096834831596e-03	9.999107118714423148e-01	-6.478927096834831596e-03	1.452064074527366897e-04	2.182450246174198597e-04
8.101560311999999918e+06	8.274090000004452605e-05	1.611949999999993401e-04	9.997940480003245645e-01	-1.276016262292665668e-02	9.997940480003245645e-01	-1.276016262292665668e-02	1.377005852617017726e-04	2.979291635209599018e-04
1.210234047000000067e+07	1.508980000000104398e-04	3.475979999999975756e-04	9.996637930757388268e-01	-1.904971263717484056e-02	9.996637930757388268e-01	-1.904971263717484056e-02	1.225253891523366944e-04	2.480128217145620450e-04
1.610312061999999918e+07	5.910529999997306239e-05	3.632859999999974430e-04	9.995349307138510220e-01	-2.523637364229613933e-02	9.995349307138510220e-01	-2.523637364229613933e-02	9.082345845763152570e-05	2.711052566199542366e-04
2.010390078000000119e+07	1.605820000000202086e-04	4.437929999999979378e-04	9.993452385195975562e-01	-3.163948230034095699e-02	9.993452385195975562e-01	-3.163948230034095699e-02	6.232621325430397186e-05	1.920580434155012253e-04
2.410468094000000134e+07	2.612749999999497419e-04	6.548339999999930328e-04	9.990567383457193973e-01	-3.776153733265240342e-02	9.990567383457193973e-01	-3.776153733265240342e-02	-9.960947708480163125e-06	2.927027581743153121e-04
2.810546108999999985e+07	1.744639999999853246e-04	6.841310000000044855e-04	9.987673165297191735e-01	-4.397836709546016493e-02	9.987673165297191735e-01	-4.397836709546016493e-02	1.409764155813679162e-04	3.459445011507494730e-04
3.210624125000000000e+07	1.517460000000082064e-04	7.225700000000057077e-04	9.984206276903487831e-01	-5.018293328594595343e-02	9.984206276903487831e-01	-5.018293328594595343e-02	3.156272993410695290e-04	3.614788455686672604e-04
3.610702139999999851e+07	2.026809999999823475e-04	8.630689999999940909e-04	9.980258235093255603e-01	-5.664603623006907174e-02	9.980258235093255603e-01	-5.664603623006907174e-02	2.746382111824596036e-04	2.425775764352166490e-04
4.010780156000000238e+07	2.262790000000515197e-04	8.581520000000009141e-04	9.976061617376090762e-01	-6.285927866082778592e-02	9.976061617376090762e-01	-6.285927866082778592e-02	5.071140188210795929e-04	3.122744824884392560e-04
4.410858171999999881e+07	2.605319999999800018e-04	9.597440000000123650e-04	9.971526847788805270e-01	-6.909005346163582528e-02	9.971526847788805270e-01	-6.909005346163582528e-02	7.056239193984453458e-04	2.680348501152568920e-04
4.810936186999999732e+07	2.744900000000161100e-04	1.028997000000003714e-03	9.966716968577519209e-01	-7.535888197930989962e-02	9.966716968577519209e-01	-7.535888197930989962e-02	7.754648879176272418e-04	4.311599767978130686e-04
5.211014203000000119e+07	3.451979999999909036e-04	1.146160000000007173e-03	9.961466910974191569e-01	-8.157063453143786891e-02	9.961466910974191569e-01	-8.157063453143786891e-02	8.209678312156054895e-04	3.834076575264038726e-04
5.611092217999999970e+07	3.767679999999717921e-04	1.222941000000005163e-03	9.955992992704220113e-01	-8.776274826053788447e-02	9.955992992704220113e-01	-8.776274826053788447e-02	8.170065220633699688e-04	3.693924385861180153e-04
6.011170234000000358e+07	3.799810000000292121e-04	1.330875000000009134e-03	9.949846138414504271e-01	-9.398031598365499950e-02	9.949846138414504271e-01	-9.398031598365499950e-02	8.199045939368128063e-04	3.531631134238693431e-04
6.411248250000000000e+07	4.108659999999541039e-04	1.416586999999996932e-03	9.943314775608190770e-01	-1.002051359679562992e-01	9.943314775608190770e-01	-1.002051359679562992e-01	7.693042976865503832e-04	3.529280905358962912e-04
6.811326265000000596e+07	4.142729999999651387e-04	1.516079000000003507e-03	9.937029283586690243e-01	-1.064761856687221481e-01	9.937029283586690243e-01	-1.064761856687221481e-01	7.112637070034116089e-04	3.682665250037242652e-04
7.211404281000000238e+07	4.438340000000318142e-04	1.651635000000012399e-03	9.929592902833797030e-01	-1.126910337371842541e-01	9.929592902833797030e-01	-1.126910337371842541e-01	8.055234503411170914e-04	3.405757126230870842e-04
7.611482295999999344e+07	4.413159999999693994e-04	1.656938999999996165e-03	9.921729488505747208e-01	-1.188229483750622012e-01	9.921729488505747208e-01	-1.188229483750622012e-01	8.547658568932257070e-04	2.547869201921543095e-04
8.011560312000000477e+07	4.429809999999535482e-04	1.738387000000007898e-03	9.913865974172547668e-01	-1.249987569540972482e-01	9.913865974172547668e-01	-1.249987569540972482e-01	7.480244860753087121e-04	2.151870069905330828e-04
8.411638328000000119e+07	4.478650000000472531e-04	1.799256000000026834e-03	9.906114817995285149e-01	-1.311407653242726012e-01	9.906114817995285149e-01	-1.311407653242726012e-01	8.600633086774786464e-04	1.759934860859811928e-04
8.811716343000000715e+07	4.800550000000347595e-04	1.852719999999974387e-03	9.898063709880184913e-01	-1.373149128005446695e-01	9.898063709880184913e-01	-1.373149128005446695e-01	9.634212769373304936e-04	2.743253608443229144e-04
9.211794359000000358e+07	4.961799999999572108e-04	1.869958000000004894e-03	9.888551757695851485e-01	-1.435351146626502039e-01	9.888551757695851485e-01	-1.435351146626502039e-01	1.182841839377052036e-03	3.590808867490735950e-04
9.611872373999999464e+07	5.608390000000351705e-04	1.937265000000021331e-03	9.879303201740394780e-01	-1.496978050711595676e-01	9.879303201740394780e-01	-1.496978050711595676e-01	1.247117881193273792e-03	3.868996114704939863e-04
1.001195039000000060e+08	5.997610000000319630e-04	1.987031000000027969e-03	9.869414658914934524e-01	-1.558385128027479916e-01	9.869414658914934524e-01	-1.558385128027479916e-01	1.260774828885492024e-03	3.984166652421448603e-04
1.041202840999999940e+08	6.162570000000091534e-04	2.059454999999987823e-03	9.859043244126211025e-01	-1.619994097725986626e-01	9.859043244126211025e-01	-1.619994097725986626e-01	1.269143385266877566e-03	4.456618903566466196e-04
1.081210642000000030e+08	6.775039999999952264e-04	2.153006999999984572e-03	9.848135322995713592e-01	-1.681605339417568123e-01	9.848135322995713592e-01	-1.681605339417568123e-01	1.304038772088510732e-03	4.536075496623691371e-04
1.121218444000000060e+08	6.901219999999597121e-04	2.213436999999984778e-03	9.837312276047592841e-01	-1.743188868885139631e-01	9.837312276047592841e-01	-1.743188868885139631e-01	1.356473190648142856e-03	3.742540108133251414e-04
1.161226245000000000e+08	7.362619999999875375e-04	2.326486999999988203e-03	9.826317803389186256e-01	-1.804215464302503791e-01	9.826317803389186256e-01	-1.804215464302503791e-01	1.333342029439587651e-03	3.618119303586944582e-04
1.201234047000000030e+08	7.427349999999945888e-04	2.392430999999972663e-03	9.814425566206911311e-01	-1.865847553911750556e-01	9.814425566206911311e-01	-1.865847553911750556e-01	1.319264980017841732e-03	3.742745452471078413e-04
1.241241847999999970e+08	8.098970000000040807e-04	2.431002999999987146e-03	9.802737323955209581e-01	-1.927358043196194526e-01	9.802737323955209581e-01	-1.927358043196194526e-01	1.334049090291484704e-03	3.100476910625125882e-04
1.281249650000000000e+08	8.111339999999911399e-04	2.516147999999995832e-03	9.790117153973377784e-01	-1.988295714188594299e-01	9.790117153973377784e-01	-1.988295714188594299e-01	1.495663415328086533e-03	2.891823446369994641e-04
1.321257450999999940e+08	8.513460000000301446e-04	2.555949999999973521e-03	9.777737868845729485e-01	-2.049597197775655799e-01	9.777737868845729485e-01	-2.049597197775655799e-01	1.586399948262379265e-03	2.997910506029671188e-04
1.361265253000000119e+08	9.140340000000080067e-04	2.621083999999995751e-03	9.764319229318598747e-01	-2.110294995430530562e-01	9.764319229318598747e-01	-2.110294995430530562e-01	1.690842702684569512e-03	3.165619849229304658e-04
1.401273055000000000e+08	9.396699999999480468e-04	2.772410000000002928e-03	9.750687213962369038e-01	-2.171213949821410583e-01	9.750687213962369038e-01	-2.171213949821410583e-01	1.835899973909473895e-03	3.588405554638928992e-04
1.441280855999999940e+08	1.052618999999976879e-03	2.787778000000018519e-03	9.736078871449687089e-01	-2.232580218736621436e-01	9.736078871449687089e-01	-2.232580218736621436e-01	1.959718032333902533e-03	4.687552759043184963e-04
1.481288658000000119e+08	1.073359000000051466e-03	2.835301999999984002e-03	9.721261639354903394e-01	-2.292851945839744776e-01	9.721261639354903394e-01	-2.292851945839744776e-01	2.083057178729158781e-03	3.493069473905132272e-04
1.521296459000000060e+08	1.108447999999984113e-03	2.982258000000015397e-03	9.706508443050277934e-01	-2.352964302211394687e-01	9.706508443050277934e-01	-2.352964302211394687e-01	2.033710318202567365e-03	1.521969675593336018e-04
1.561304260999999940e+08	1.118638999999976629e-03	3.002840000000006615e-03	9.691451851530826778e-01	-2.413202273326499614e-01	9.691451851530826778e-01	-2.413202273326499614e-01	2.015341172250527130e-03	1.456434235496755717e-04
1.601312061999999881e+08	1.152951999999985095e-03	3.137767999999985236e-03	9.675860317783843145e-01	-2.474037752438438820e-01	9.675860317783843145e-01	-2.474037752438438820e-01	1.842304650669535516e-03	1.139965270550775305e-04
1.641319864000000060e+08	1.157227999999954626e-03	3.178846000000012939e-03	9.660299660839045677e-01	-2.534292057991690550e-01	9.660299660839045677e-01	-2.534292057991690550e-01	1.869933099472236709e-03	9.548194996029642310e-05
1.681327665999999940e+08	1.154725999999995029e-03	3.217462999999975981e-03	9.643786125124850228e-01	-2.594725970898673073e-01	9.643786125124850228e-01	-2.594725970898673073e-01	1.908221649919928514e-03	4.844203368131576055e-05
1.721335466999999881e+08	1.199838999999980772e-03	3.253375000000002792e-03	9.627169029348482399e-01	-2.654744706074964600e-01	9.627169029348482399e-01	-2.654744706074964600e-01	1.959296627457343155e-03	5.703311035797087054e-05
1.761343269000000060e+08	1.209702000000034694e-03	3.277475999999945877e-03	9.610518206316691625e-01	-2.714780164085658920e-01	9.610518206316691625e-01	-2.714780164085658920e-01	2.139617257078227103e-03	6.758527925695056917e-05
1.801351070000000000e+08	1.251396000000015718e-03	3.283642999999947243e-03	9.593118016662803837e-01	-2.774734059911972972e-01	9.593118016662803837e-01	-2.774734059911972972e-01	2.225556365805497067e-03	9.967050940618503961e-05
1.841358871999999881e+08	1.289447999999970840e-03	3.294240999999975550e-03	9.575409714333806832e-01	-2.834871713398402493e-01	9.575409714333806832e-01	-2.834871713398402493e-01	2.422751962467904318e-03	1.526888544158978411e-04
1.881366673000000119e+08	1.327926999999951008e-03	3.355554999999954546e-03	9.557527923281752269e-01	-2.894321284281249351e-01	9.557527923281752269e-01	-2.894321284281249351e-01	2.621498652491887661e-03	2.593621837254076780e-04
1.921374475000000000e+08	1.406535999999958264e-03	3.370305000000017870e-03	9.539099329984681575e-01	-2.953414974773681534e-01	9.539099329984681575e-01	-2.953414974773681534e-01	2.723806869399288729e-03	2.689227159338070279e-04
1.961382275999999940e+08	1.473590999999996320e-03	3.460392000000034329e-03	9.520109839030979071e-01	-3.012749781169302143e-01	9.520109839030979071e-01	-3.012749781169302143e-01	2.670059381420426727e-03	2.499166528898081729e-04
2.001390078000000119e+08	1.522833999999972932e-03	3.553629999999974309e-03	9.500303269812169216e-01	-3.072074978677589163e-01	9.500303269812169216e-01	-3.072074978677589163e-01	2.681365889840400373e-03	1.405217301220463774e-04
2.041397880000000000e+08	1.615130000000020594e-03	3.687941999999999609e-03	9.480738087930626889e-01	-3.131607909008232715e-01	9.480738087930626889e-01	-3.131607909008232715e-01	2.584755751833880955e-03	5.958344416538653363e-05
2.081405680999999940e+08	1.684424000000017685e-03	3.677064999999979378e-03	9.460940702965440208e-01	-3.190766854858327894e-01	9.460940702965440208e-01	-3.190766854858327894e-01	2.489962114065361401e-03	4.086695715901445328e-05
2.121413483000000119e+08	1.706250000000020684e-03	3.762743000000012827e-03	9.440400994567693660e-01	-3.249728458148802845e-01	9.440400994567693660e-01	-3.249728458148802845e-01	2.521591446831186745e-03	-8.341983874768973267e-05
2.161421284000000060e+08	1.681217000000012184e-03	3.817810000000032566e-03	9.419463059906520996e-01	-3.308791458726331736e-01	9.419463059906520996e-01	-3.308791458726331736e-01	2.647641141636210629e-03	-7.179402974622026840e-05
2.201429085999999940e+08	1.698302999999956597e-03	3.839971999999969299e-03	9.398106478948180520e-01	-3.367834822564715891e-01	9.398106478948180520e-01	-3.367834822564715891e-01	2.758310316753524380e-03	-8.282678044933952308e-05
2.241436886999999881e+08	1.786588999999949579e-03	3.818457000000052837e-03	9.376612435023418124e-01	-3.425996856130266166e-01	9.376612435023418124e-01	-3.425996856130266166e-01	2.854726791509377276e-03	-1.951984010890115556e-04
2.281444689000000060e+08	1.867087000000045450e-03	3.808657999999964794e-03	9.355200397532795753e-01	-3.484021867599453315e-01	9.355200397532795753e-01	-3.484021867599453315e-01	2.834261091025162480e-03	-1.836370395483606296e-04
2.321452490000000000e+08	1.943684000000001511e-03	3.836877000000015869e-03	9.333136236186844181e-01	-3.542479172358092288e-01	9.333136236186844181e-01	-3.542479172358092288e-01	2.916127944086195200e-03	-2.415341740244075774e-04
2.361460291999999881e+08	2.002619999999954558e-03	3.860588999999969850e-03	9.310772895831164186e-01	-3.600729251091628336e-01	9.310772895831164186e-01	-3.600729251091628336e-01	3.063544746501346925e-03	-1.055110578474381840e-04
2.401468094000000060e+08	2.085295999999958738e-03	3.904993999999994969e-03	9.287500713974354838e-01	-3.658627859891558365e-01	9.287500713974354838e-01	-3.658627859891558365e-01	3.016956379300040486e-03	-1.301038657177768822e-04
2.441475895000000000e+08	2.165743000000052831e-03	3.897492999999974551e-03	9.263887216487627363e-01	-3.716227730086811842e-01	9.263887216487627363e-01	-3.716227730086811842e-01	3.019224525068350817e-03	-8.880279297944016284e-05
2.481483696999999881e+08	2.255235000000022083e-03	3.949513000000015595e-03	9.240510414980643850e-01	-3.773964062604715508e-01	9.240510414980643850e-01	-3.773964062604715508e-01	3.026903263410559916e-03	-1.560497193339306470e-04
2.521491498000000119e+08	2.319901000000013092e-03	4.019212999999965952e-03	9.216329772840661239e-01	-3.831486342755282548e-01	9.216329772840661239e-01	-3.831486342755282548e-01	3.128358640822503488e-03	-1.697967324640397777e-04
2.561499300000000000e+08	2.382839999999997183e-03	4.018430999999988984e-03	9.191734025925997198e-01	-3.888782604144023214e-01	9.191734025925997198e-01	-3.888782604144023214e-01	3.129423390305927435e-03	-1.100516659849567515e-04
2.601507100999999940e+08	2.459451999999972670e-03	4.068535000000039759e-03	9.167044556960047830e-01	-3.946183358899625349e-01	9.167044556960047830e-01	-3.946183358899625349e-01	3.235402700271995408e-03	-1.607282276758371237e-04
2.641514903000000119e+08	2.468099999999973527e-03	4.100071999999954642e-03	9.142036304171738959e-01	-4.002901767554568613e-01	9.142036304171738959e-01	-4.002901767554568613e-01	3.305377065795020441e-03	-2.399565597517711295e-04
2.681522705000000000e+08	2.554923000000042244e-03	4.153454000000000867e-03	9.116457318164584711e-01	-4.060068081837669984e-01	9.116457318164584711e-01	-4.060068081837669984e-01	3.442441452237644979e-03	-2.813180204519574214e-04
2.721530506000000238e+08	2.617171000000029224e-03	4.104989000000003330e-03	9.090662098644111122e-01	-4.116761935883471724e-01	9.090662098644111122e-01	-4.116761935883471724e-01	3.489976747437549022e-03	-2.020522081608248227e-04
2.761538308000000119e+08	2.646778000000016284e-03	4.200976999999994632e-03	9.064631416074047099e-01	-4.173461142326668205e-01	9.064631416074047099e-01	-4.173461142326668205e-01	3.574467530451353858e-03	-3.491584141195500871e-04
2.801546108999999762e+08	2.723029999999959216e-03	4.174518999999988524e-03	9.038490346919498819e-01	-4.230377683958041479e-01	9.038490346919498819e-01	-4.230377683958041479e-01	3.628384856347836515e-03	-1.861706845755423459e-04
2.841553911000000238e+08	2.780573999999979683e-03	4.267852000000016410e-03	9.011834612887191787e-01	-4.286577190848849805e-01	9.011834612887191787e-01	-4.286577190848849805e-01	3.539069090803205822e-03	-2.376948126146135026e-04
2.881561711999999881e+08	2.852148999999970513e-03	4.284834000000015131e-03	8.984416518099911375e-01	-4.342520630585639529e-01	8.984416518099911375e-01	-4.342520630585639529e-01	3.567814918966078462e-03	-2.504228037213489504e-04
2.921569513999999762e+08	2.981309000000043063e-03	4.380484999999989526e-03	8.956679079650577968e-01	-4.399092831603952369e-01	8.956679079650577968e-01	-4.399092831603952369e-01	3.547890720681234466e-03	-3.503130156285885841e-04
2.961577315000000000e+08	3.027362999999949622e-03	4.457382000000009725e-03	8.928659184623215506e-01	-4.454794952630599103e-01	8.928659184623215506e-01	-4.454794952630599103e-01	3.547089936283133287e-03	-4.603964582090371883e-04
3.001585116999999881e+08	3.105769000000035539e-03	4.453268999999981936e-03	8.900749376720749062e-01	-4.509734629285303553e-01	8.900749376720749062e-01	-4.509734629285303553e-01	3.502650488645927922e-03	-5.992915405434019824e-04
3.041592918999999762e+08	3.158168000000016740e-03	4.449829000000015376e-03	8.871853348699620945e-01	-4.565043170940421557e-01	8.871853348699620945e-01	-4.565043170940421557e-01	3.515906270780743813e-03	-7.498682866050759323e-04
3.081600720000000000e+08	3.175142000000019237e-03	4.493200999999946710e-03	8.843081626382962579e-01	-4.620347236999793328e-01	8.843081626382962579e-01	-4.620347236999793328e-01	3.569506881542000055e-03	-8.244921147728271130e-04
3.121608521999999881e+08	3.224306000000010542e-03	4.488225999999984062e-03	8.813785198757954076e-01	-4.675567511975153301e-01	8.813785198757954076e-01	-4.675567511975153301e-01	3.756001076658035086e-03	-8.643826071719302659e-04
3.161616323000000119e+08	3.224914000000022284e-03	4.443649000000049476e-03	8.784013092692789515e-01	-4.730590502745982695e-01	8.784013092692789515e-01	-4.730590502745982695e-01	3.946561047206427475e-03	-9.077795555457594031e-04
3.201624125000000000e+08	3.356249999999949551e-03	4.474720000000043107e-03	8.754271049140796013e-01	-4.785492037042994862e-01	8.754271049140796013e-01	-4.785492037042994862e-01	3.953845294809341104e-03	-8.165093468909005378e-04
3.241631926000000238e+08	3.367322999999977640e-03	4.458018999999980615e-03	8.724129120517640779e-01	-4.840034497477299635e-01	8.724129120517640779e-01	-4.840034497477299635e-01	4.234349982727255574e-03	-7.771665102988386999e-04
3.281639728000000119e+08	3.592868999999998536e-03	4.436071999999957605e-03	8.693035236875398253e-01	-4.894122010971977410e-01	8.693035236875398253e-01	-4.894122010971977410e-01	4.249896858102079379e-03	-7.920684609778530505e-04
3.321647530000000000e+08	3.659980999999978835e-03	4.451791000000038245e-03	8.662250320126212433e-01	-4.947848548378009914e-01	8.662250320126212433e-01	-4.947848548378009914e-01	4.291021888472168998e-03	-7.781185285082867827e-04
3.361655331000000238e+08	3.817212999999985978e-03	4.467286000000013878e-03	8.630772386048901623e-01	-5.002094927035712901e-01	8.630772386048901623e-01	-5.002094927035712901e-01	4.310143938187567351e-03	-8.327384118783842312e-04
3.401663133000000119e+08	3.859539000000022924e-03	4.492974000000038437e-03	8.599141240392613739e-01	-5.056214214133564200e-01	8.599141240392613739e-01	-5.056214214133564200e-01	4.252400002895600356e-03	-8.134796521038604750e-04
3.441670933999999762e+08	3.916421999999974979e-03	4.584844000000032338e-03	8.567501887916513237e-01	-5.109625036272370524e-01	8.567501887916513237e-01	-5.109625036272370524e-01	4.180233142087285726e-03	-8.839028731387834920e-04
