#  HZ   S   RI   R     50.00 
! Rohde & Schwarz Vector Network Analyzer 
! Rohde-Schwarz,ZNB20-2Port,1311601062101763,2.70
! Created: UTC 3/9/2022, 3:35:21 PM
! freq[Hz]                re:S11                  im:S11                  re:S21                  im:S21                  re:S12                  im:S12                  re:S22                  im:S22
 1.000000000000000E5    -1.136566039055025E-3    2.396042766936881E-4   -9.981799903702122E-5   -1.513517189796858E-5   -6.343655385166651E-5    1.279130237100860E-5    1.670609126958901E-4   -6.116266756345845E-5
 4.100780156031206E6    -9.472040715650505E-4    6.809324345180636E-5    2.710411020967923E-6   -7.604143014492433E-6   -2.338986933853400E-7   -6.738038933559999E-6    2.674221437535023E-4    1.051983954534655E-5
 8.101560312062413E6    -9.441624707877183E-4   -4.211898133422493E-5   -1.843630825149240E-7   -2.430398735566227E-6   -7.438373902109499E-6    8.320526312235174E-6    1.866387754570265E-4    3.441876085166581E-5
 1.210234046809362E7    -1.101492220021268E-3    1.823683136449662E-5    5.447739579943330E-6    4.756200123691449E-7   -1.922846430520152E-6    6.299384090027543E-6    1.006147725385994E-4   -1.642164617453022E-5
 1.610312062412483E7    -1.027716136395208E-3   -5.567026847422533E-5   -3.569499648256871E-6    1.021177850170218E-5    1.561827114730886E-5   -1.153682769224118E-5    5.603815120922285E-5   -1.930980826244982E-4
 2.010390078015603E7    -1.093095276574663E-3   -2.024584202743211E-4   -1.853561454603313E-5    2.534573488738601E-6    1.018164395066793E-5    1.195753891499401E-5   -3.181184536557524E-5   -2.474028616358574E-4
 2.410468093618724E7    -1.202404115743403E-3   -2.923821547569033E-4    2.884450857942264E-6   -1.969039591189497E-5    1.309744618197395E-5   -5.665287760836636E-6    4.980798440865424E-5   -5.546332374810417E-4
 2.810546109221844E7    -1.112572313200722E-3   -3.252410675302620E-4    1.268784036535389E-6    1.560756752409730E-5    1.320985752923451E-5    3.003891475595475E-6    1.552612154332426E-4   -6.875740551877471E-4
 3.210624124824965E7    -1.107238719872378E-3   -4.112122499872746E-4    1.456984439785588E-5    6.338358921579697E-6   -1.389642619126545E-6   -3.209432492244925E-6    2.347124959613246E-4   -7.580596840955097E-4
 3.610702140428086E7    -1.041852948306289E-3   -5.048047515861232E-4   -1.186787136957240E-8    9.315630172073013E-6    3.681729603572387E-6    3.516696915639370E-6    3.545784675112648E-4   -8.793636228644875E-4
 4.010780156031206E7    -9.916231752389690E-4   -5.046288808501799E-4   -1.352488006933175E-6    9.742312519593091E-6   -8.881576434493107E-6    7.014332434277846E-6    5.171433394184382E-4   -7.810815471936219E-4
 4.410858171634327E7    -1.023840556793800E-3   -4.897662612923399E-4   -1.104514121507608E-5   -9.544048072335349E-7   -2.038125096340584E-6    1.224659331581394E-5    6.152274123655065E-4   -7.439614592703055E-4
 4.810936187237448E7    -9.225873966430170E-4   -4.983235073854064E-4    2.935570048573092E-6    5.564089157659171E-6   -1.384085163063993E-5    1.095940030034620E-5    5.483999983910034E-4   -5.693232044559287E-4
 5.211014202840568E7    -9.367319879176272E-4   -4.504164970716094E-4   -8.677152006831276E-6    7.473939481716074E-6    5.090379740698700E-6    8.256579664501034E-6    3.833105869936915E-4   -6.078300081951261E-4
 5.611092218443689E7    -9.467598621561209E-4   -5.047502946610692E-4    1.120602700152272E-5    4.915274353761909E-7    5.428667489260099E-6    6.358503992655365E-6    2.100389648106124E-4   -5.700029889507853E-4
 6.011170234046809E7    -9.295177900854158E-4   -5.389322512446644E-4   -6.517007540732330E-7    1.375431352577602E-6    1.194585109373477E-5    8.725035446755288E-7    9.924114831999558E-5   -7.335187974957629E-4
 6.411248249649930E7    -1.006901877828351E-3   -5.582237286100660E-4   -7.990686615774643E-6    8.102514434524403E-6    8.955196258350422E-6    5.550052384318600E-6   -3.373770334970705E-5   -9.126124547193398E-4
 6.811326265253051E7    -9.897470836766086E-4   -5.064536406913266E-4    4.457263663046351E-6    8.829191548649461E-6   -2.846222417349254E-6    1.281414897271889E-5   -6.289117564717655E-5   -1.151412970819978E-3
 7.211404280856171E7    -9.263449683070853E-4   -4.363249560369267E-4    6.735804537674086E-6    5.900980260064970E-6   -3.079502592054944E-6    7.220903254386870E-6   -6.539329518139158E-5   -1.358100483208442E-3
 7.611482296459292E7    -8.606497048166767E-4   -5.206300163896624E-4   -4.444520147947389E-6    1.467947409085544E-5   -4.022920202644266E-6    4.777801364891411E-6    5.377503870061630E-5   -1.576151154121576E-3
 8.011560312062413E7    -9.142235761477985E-4   -5.108613482329436E-4    1.083726449691485E-5    3.204707079672079E-6    3.790671855640351E-6    7.554259054583539E-6    1.913225720364924E-4   -1.643564804951721E-3
 8.411638327665533E7    -9.401513136716089E-4   -5.188750670685464E-4   -1.006818021258389E-5    2.238975214029366E-5   -3.198320479209516E-6    1.193619675162978E-5    3.355821207368694E-4   -1.647945055158921E-3
 8.811716343268654E7    -9.549280927267657E-4   -5.577222250743387E-4    2.484597544462878E-6    1.487998071822917E-5    1.209691128240487E-5    1.125928150128818E-5    4.346840213277580E-4   -1.614792760104684E-3
 9.211794358871774E7    -1.021808365435458E-3   -5.828968101580519E-4   -1.192881969765193E-7    1.958895998065232E-5    7.672426927346532E-6    1.447872513262820E-5    4.237832510150255E-4   -1.511613594632138E-3
 9.611872374474895E7    -1.098965919886958E-3   -5.716148084955386E-4   -2.712130660871027E-6    2.129597659336101E-5    4.035662628348688E-6    1.625502409539676E-5    2.921479222829451E-4   -1.465008818349971E-3
 1.001195039007802E8    -1.142343032860161E-3   -6.498569976470597E-4    1.841870360871274E-6    2.038644001735941E-5    9.449616962694236E-6    7.790052682558023E-6    8.859875667506803E-5   -1.449504143165281E-3
 1.041202840568114E8    -1.131369178724682E-3   -8.356402999463940E-4    2.137822114301677E-6    2.060606638511202E-5    6.110644032876600E-6    1.185631195146518E-5   -1.188748623487824E-4   -1.502892176140275E-3
 1.081210642128426E8    -1.189501697372178E-3   -8.945873534363504E-4    1.215817929700914E-5    5.218591640813898E-6   -2.185411540844197E-6    8.748825728330628E-6   -2.887317733690529E-4   -1.685607821435986E-3
 1.121218443688738E8    -1.128996783497706E-3   -9.630130292084399E-4    3.703917791633266E-6    1.208354587123815E-5   -1.279751061837366E-6    7.868367146176949E-6   -3.720692739014211E-4   -1.974475051241712E-3
 1.161226245249050E8    -1.070137884892989E-3   -1.155412979777233E-3    7.274336256123825E-6    2.355919040041865E-5    1.185058927080793E-5    1.650732657079771E-5   -3.189337782772412E-4   -2.188196978401398E-3
 1.201234046809362E8    -9.687279004623742E-4   -1.158006206912991E-3   -9.029787280765620E-7    1.709523136448599E-5    1.223826358111830E-6    1.139056721245235E-5   -2.365073235172874E-4   -2.476161402820834E-3
 1.241241848369674E8    -8.350847461041362E-4   -1.145782357768975E-3    5.817053485162311E-6    5.296384964415120E-6    2.050023620065773E-6    2.376470273723614E-5   -1.182665184998901E-4   -2.624572970141147E-3
 1.281249649929986E8    -7.396534173296161E-4   -1.165665352890702E-3    1.015468199527671E-5    2.240456319655090E-5   -1.935318416666831E-6    3.969956806711683E-6    1.040793112317303E-4   -2.697303857854041E-3
 1.321257451490298E8    -6.213404979646419E-4   -1.050426408629811E-3   -2.030033128125767E-6    1.422613110450001E-5    6.532168428884610E-7    9.546798223639601E-6    2.230394857120488E-4   -2.702428994896732E-3
 1.361265253050610E8    -6.037501691982391E-4   -9.558365512273948E-4    1.994595849809618E-6    1.117585948465713E-5    1.024810760149046E-5    1.152937988409696E-5    3.742124266930594E-4   -2.624410479207842E-3
 1.401273054610922E8    -6.838275100436672E-4   -8.069277506679339E-4    8.517517595371904E-7    1.927737032236370E-5   -9.109224554942946E-6    1.424565428724548E-5    3.584522153311903E-4   -2.434948066651406E-3
 1.441280856171234E8    -7.030270378741515E-4   -6.368484383686617E-4    2.742018050835373E-6    2.058109153046932E-5    5.006559619907214E-6    1.652375074166868E-5    1.599249977027929E-4   -2.307875206576018E-3
 1.481288657731546E8    -7.322847902608445E-4   -5.150244465602969E-4   -3.344429138132811E-6    2.143341636951026E-5   -6.747946767267396E-7    1.943527016869994E-5   -2.789958310716124E-5   -2.348495492259150E-3
 1.521296459291858E8    -8.370455621029833E-4   -5.541015560351514E-4   -2.589007007000796E-6    1.840602641108462E-5    3.672050998962948E-6    2.305438565988083E-5   -2.773274032450303E-4   -2.449479696284684E-3
 1.561304260852171E8    -1.008640820478106E-3   -6.060215922246997E-4   -1.098032008233374E-5    2.282450666548725E-5   -9.034436799627911E-6    2.603435550211948E-5   -3.746953090234421E-4   -2.633592255183575E-3
 1.601312062412483E8    -1.080923934061760E-3   -6.552275849962744E-4    1.068404405068754E-5    3.462058011820799E-5    3.157841825269639E-6    3.164019597430460E-5   -6.140403228594936E-4   -2.928975362507748E-3
 1.641319863972794E8    -1.210516280358856E-3   -8.078186797634339E-4    1.010911144502215E-5    2.664024399948506E-5    3.395875823213366E-6    1.950662054501031E-5   -5.242510052565412E-4   -3.303327419817791E-3
 1.681327665533107E8    -1.192365939259978E-3   -8.949826661832454E-4    9.958466440267941E-6    2.352725585174437E-5    5.491774747494256E-6    2.329211687725704E-5   -3.949808239541353E-4   -3.547304652932800E-3
 1.721335467093419E8    -1.311993338484137E-3   -1.055365470149853E-3    1.145650716048614E-5    3.481253398677300E-5    1.202116670233335E-5    1.827040919528077E-5   -1.606527504176824E-4   -3.734987184029394E-3
 1.761343268653731E8    -1.204116170606801E-3   -1.156045553302011E-3    1.210345231767448E-5    2.328188606036271E-5    1.122103833204261E-5    2.242308773844188E-5    7.139707874154452E-5   -3.802081527498274E-3
 1.801351070214043E8    -1.117998630539435E-3   -1.240319184181796E-3    1.522620590148882E-5    2.359246327805524E-5    2.122567222724052E-5    2.597672260513116E-5    2.770339806806414E-4   -3.773960748015851E-3
 1.841358871774355E8    -1.100162623274353E-3   -1.260359320715902E-3    4.955435186057027E-6    2.865924068484723E-5    8.276552720601713E-6    2.714525825147270E-5    4.539901798734018E-4   -3.600446157536488E-3
 1.881366673334667E8    -1.088215702869798E-3   -1.342457300887441E-3    4.062494764533146E-6    3.021665751549134E-5    1.604850274162038E-5    2.326595628442240E-5    4.615236254753648E-4   -3.463092279984955E-3
 1.921374474894979E8    -8.294392289365166E-4   -1.422412728256982E-3    8.362166937661974E-6    2.539479277918009E-5    1.249644663637466E-6    4.036966577082995E-5    5.036779278310422E-4   -3.361429276408104E-3
 1.961382276455291E8    -8.596513730992080E-4   -1.354229457885439E-3    2.015501194685099E-5    2.279433880942466E-5    1.454688235666180E-5    2.963523089037240E-5    2.008174794144687E-4   -3.194479618726396E-3
 2.001390078015603E8    -7.345058987991479E-4   -1.321596326346953E-3    1.173814394648926E-5    2.445255317290314E-5    6.791414013382477E-6    3.494462826792981E-5    4.646989917407642E-5   -3.253309878588157E-3
 2.041397879575915E8    -6.871959947238252E-4   -1.224332238034540E-3    1.021755068702904E-5    1.498026151381847E-5    6.451292097594929E-6    2.898180459253241E-5    4.358115944637050E-6   -3.335535019040866E-3
 2.081405681136227E8    -6.670294826930479E-4   -1.162979525243209E-3    1.888390370863901E-5    2.125855746274526E-5    2.969393118083620E-5    1.585510041266720E-5   -2.015822290929294E-4   -3.468972341742588E-3
 2.121413482696539E8    -6.843268600493143E-4   -9.916051341440097E-4    1.699637114000608E-5    2.277200125837270E-5    1.826418689923821E-5    3.357867753141945E-5   -2.116991585514784E-4   -3.613478641463638E-3
 2.161421284256851E8    -7.629452893508056E-4   -7.771865757514412E-4    1.948454122570397E-5    2.244038100626121E-5    1.798710752089574E-5    3.253543924564240E-5   -1.172994312279188E-4   -3.768601472982955E-3
 2.201429085817164E8    -8.593498108222892E-4   -6.778605727737035E-4    1.795921767230361E-5    2.973405432383380E-5    2.359188893080693E-7    3.385038562332311E-5   -2.046201878806069E-5   -3.750342642114790E-3
 2.241436887377476E8    -1.007973634577868E-3   -6.085794325798276E-4    1.054827745237936E-5    2.573069842032182E-5    3.328002425764455E-5    2.705920290649888E-5    1.441195471262530E-4   -3.718161351499081E-3
 2.281444688937787E8    -9.813874627640487E-4   -6.278924471529931E-4    1.248259382859832E-5    3.181357940152470E-5    2.110802625196715E-5    2.854230737320023E-5    1.074284387393048E-4   -3.570143282737566E-3
 2.321452490498100E8    -1.220078506610762E-3   -6.636815826417861E-4    3.832408800856619E-6    3.940283503893975E-5    5.369414980370171E-6    2.515367008881202E-5    3.623452836441752E-5   -3.457343321279996E-3
 2.361460292058412E8    -1.388183629804347E-3   -8.361780656883228E-4    5.737015899687889E-6    1.845490426112061E-5    1.617811152438970E-5    4.222905324615263E-5   -1.242594983639339E-4   -3.328155234909922E-3
 2.401468093618724E8    -1.462550359402221E-3   -9.147308820326009E-4    2.519220008235995E-5    3.015145825231774E-5    1.236750378149373E-5    2.855215725079662E-5   -4.264439907489281E-4   -3.284605843625575E-3
 2.441475895179036E8    -1.501887107843967E-3   -1.073680546616167E-3    8.813817794501490E-6    2.859268846637248E-5    2.276478768617745E-5    3.620124293585830E-5   -7.322100065004493E-4   -3.226387483916592E-3
 2.481483696739348E8    -1.491770400075806E-3   -1.295992414404479E-3    4.221190245570791E-6    2.591342368695693E-5    2.220178867116381E-5    2.899207588977985E-5   -1.020213160327817E-3   -3.416638066729349E-3
 2.521491498299660E8    -1.381253203301411E-3   -1.413124418154866E-3    2.489794179184207E-5    1.940931388043136E-5    6.999727449355910E-6    3.758095785282269E-5   -1.250683382525508E-3   -3.749108570393354E-3
 2.561499299859972E8    -1.238115163983443E-3   -1.502006354147960E-3    2.313213040567620E-5    2.677712756632982E-5    7.466181907175321E-6    2.785328485820437E-5   -1.245963450773835E-3   -4.033299387691664E-3
 2.601507101420284E8    -1.112812485392615E-3   -1.496880542450681E-3    8.970361358725310E-6    3.115581169050979E-5    2.552030308058138E-5    2.702831053309329E-5   -1.241058398978487E-3   -4.337779707806139E-3
 2.641514902980596E8    -8.927344590358438E-4   -1.515250598093070E-3    1.269264786615627E-5    2.396292613155903E-5   -6.179972687826681E-8    3.565842131156887E-5   -1.046449422234243E-3   -4.572375464099814E-3
 2.681522704540908E8    -7.558873605905701E-4   -1.424154883284861E-3    4.282029056687653E-6    3.067271460861095E-5    2.596458828574889E-5    2.068571737618551E-5   -7.864540530780697E-4   -4.760813249844696E-3
 2.721530506101220E8    -6.192464406387409E-4   -1.154635836481784E-3    1.970037643435048E-5    3.580528624564696E-5    9.341266444627311E-6    3.133025967139981E-5   -6.004683030313220E-4   -4.699268164073663E-3
 2.761538307661532E8    -6.115193146347021E-4   -1.066214709230507E-3    2.720597783590093E-5    2.962272273046094E-5    8.070692825278224E-6    2.444073402651561E-5   -5.654287861906428E-4   -4.498795857499784E-3
 2.801546109221845E8    -7.245855819888165E-4   -7.896550880905335E-4    2.560265976966233E-5    1.372443837612721E-5    2.743407608593732E-5    2.854637471660564E-5   -5.093290310111410E-4   -4.367599279272790E-3
 2.841553910782157E8    -8.785263781915757E-4   -5.755947959204918E-4    2.177244532431832E-5    3.322337675757244E-5    1.800162890550094E-6    3.741523291232148E-5   -5.881801937788439E-4   -4.129867224521216E-3
 2.881561712342469E8    -1.086214402715627E-3   -4.008640569701984E-4    2.995449636806405E-6    2.561491751534348E-5    1.148891380442824E-5    4.658363383942608E-5   -9.589500045600038E-4   -4.000126362298279E-3
 2.921569513902780E8    -1.353410507910464E-3   -3.460847412351577E-4    1.087575115425575E-5    2.659940400355471E-5    9.355651573508782E-6    5.026541789003436E-5   -1.236397478596894E-3   -4.003839727260544E-3
 2.961577315463092E8    -1.570388880699553E-3   -4.078782782193045E-4    2.223172483627157E-5    5.200583106653809E-5    1.597050337269232E-5    2.938863638320895E-5   -1.512170324105669E-3   -4.099489403671382E-3
 3.001585117023405E8    -1.725472160096558E-3   -5.092558187991074E-4    2.087414715325667E-5    2.903532700230450E-5    1.819483273542685E-5    2.977169738950661E-5   -1.803745602972479E-3   -4.327750302732882E-3
 3.041592918583717E8    -1.829404927423881E-3   -6.696798028050058E-4   -5.184375039215805E-8    4.825037176572901E-5    1.754846841475312E-5    4.887325624625152E-5   -1.840473594081767E-3   -4.728314519659281E-3
 3.081600720144029E8    -1.868639166896387E-3   -8.961665924264351E-4    2.600241080840490E-5    2.730575064019175E-5    2.374914467448738E-5    2.398475660126652E-5   -1.809840698209928E-3   -4.984290645405437E-3
 3.121608521704341E8    -1.828585552564376E-3   -9.928512573563568E-4    1.994739704580836E-5    4.964701228947262E-5    1.768343869394725E-5    3.183195458250622E-5   -1.734148684019006E-3   -5.177287136275334E-3
 3.161616323264653E8    -1.835812093342747E-3   -1.115893990195523E-3    2.924702323420281E-5    2.933415080400459E-5    3.411182763258583E-5    4.575773341017524E-5   -1.583189472468488E-3   -5.414124432240299E-3
 3.201624124824965E8    -1.734681446013890E-3   -1.107990558516798E-3    2.427569232271138E-5    3.899340513182540E-5    2.557593758926156E-5    2.480117408246505E-5   -1.388573507817034E-3   -5.312332201170429E-3
 3.241631926385277E8    -1.722545856184007E-3   -1.191505816237269E-3    1.855662559360630E-5    3.378460500839753E-5    2.008271500639712E-5    1.640259986550911E-5   -1.416949854369346E-3   -5.284317329574153E-3
 3.281639727945589E8    -1.653038574594871E-3   -1.227844130556811E-3    1.538644100643305E-5    4.618746581076912E-5    1.931752024593718E-5    3.082185514182197E-5   -1.288765151257622E-3   -5.114307846062253E-3
 3.321647529505901E8    -1.636817988501786E-3   -1.134159477605129E-3    2.576573182485556E-5    2.536616758801607E-5    1.515256224535099E-5    3.627107613267319E-6   -1.480168263601581E-3   -5.099061648857125E-3
 3.361655331066213E8    -1.586856290615632E-3   -1.140596249872867E-3    2.770581295107413E-5    3.506459803885343E-5    4.906975972540250E-6    3.908797349168478E-5   -1.667542036041255E-3   -5.044301240905475E-3
 3.401663132626525E8    -1.689556637481919E-3   -1.145251248432653E-3    1.419156253789172E-5    4.875262092941423E-5    1.413425190990986E-5    3.819525539492269E-5   -1.867489558096155E-3   -5.172272352261896E-3
 3.441670934186838E8    -1.735285983661198E-3   -1.113757876042535E-3    1.307261743065051E-5    4.091279757878918E-5    1.066272570793589E-5    1.752214600675707E-5   -1.917233123175535E-3   -5.247788457302585E-3
 3.481678735747150E8    -1.776473341753954E-3   -1.133233887272400E-3    9.343456784366117E-6    3.617277327161055E-5    4.181216660295634E-6    3.763184618242465E-5   -2.056472583313720E-3   -5.452706198401400E-3
 3.521686537307462E8    -1.820264964141014E-3   -1.209609921141202E-3    1.365026744092155E-5    4.223176719279736E-5    4.372934142329613E-5    4.449312134273996E-5   -1.965040991285313E-3   -5.778858256001490E-3
 3.561694338867773E8    -1.804614843543368E-3   -1.173821534913790E-3    2.305311811547213E-5    2.584249340565783E-5    3.077684590406192E-5    5.894447221239585E-5   -1.889493561347633E-3   -5.839116271381371E-3
 3.601702140428085E8    -1.689358046037337E-3   -1.150274942696838E-3    3.693746312534367E-5    4.538831282984942E-5    3.165029998833206E-5    5.004962461573759E-5   -1.659020143445851E-3   -5.891040221164196E-3
