#  HZ   S   RI   R     50.00 
! Rohde & Schwarz Vector Network Analyzer 
! Rohde-Schwarz,ZNB20-2Port,1311601062101763,2.70
! Created: UTC 3/9/2022, 3:32:36 PM
! freq[Hz]                re:S11                  im:S11                  re:S21                  im:S21                  re:S12                  im:S12                  re:S22                  im:S22
 1.000000000000000E5     1.000584661398361       2.316080870204355E-3   -3.297327175585669E-5    9.052298415244491E-6    6.597030389770879E-6    7.646249674435599E-6    1.001296217863592       6.288344647399138E-4
 4.100780156031206E6     9.992279307686598E-1   -8.450786228571264E-3   -1.076430510918180E-5    2.701305721206436E-6    1.064577472968147E-6   -2.246497611041463E-6    9.994337524780775E-1   -8.805514000365581E-3
 8.101560312062413E6     9.993999098900092E-1   -1.684383928298336E-2    1.226400800304529E-5   -4.959565381560479E-6   -5.857464521721114E-6    7.469111301847825E-6    9.994682869000713E-1   -1.721799435696841E-2
 1.210234046809362E7     9.990046170102721E-1   -2.556175092631790E-2   -9.323855197357395E-6   -6.631082228075811E-6    7.027219003509455E-6    1.322916687721665E-5    9.991551894939983E-1   -2.589020026708054E-2
 1.610312062412483E7     9.984022014381982E-1   -3.406036740182641E-2    5.583208422447728E-6    1.891324209144228E-5   -1.280616475594304E-5    9.611104672005692E-6    9.987126521124302E-1   -3.449993225917731E-2
 2.010390078015603E7     9.978355822939597E-1   -4.257228587413127E-2    1.251514082004692E-5    2.750772121590703E-5    1.148621041878159E-5   -4.287430093811799E-6    9.980181040847928E-1   -4.277896666305849E-2
 2.410468093618724E7     9.971394884164770E-1   -5.101338980933975E-2   -1.556183785359061E-5    1.304888952887745E-5   -1.791471762204833E-5    3.665614299355579E-5    9.976492428107789E-1   -5.130274671638103E-2
 2.810546109221844E7     9.964886744645813E-1   -5.987525396590816E-2   -4.507631125669347E-6    1.555924211351276E-5    2.295648303061217E-5   -4.610879045666559E-6    9.970151496288184E-1   -6.043057174785636E-2
 3.210624124824965E7     9.958157829695160E-1   -6.828279613760541E-2    1.078430933973018E-5    9.936622028559626E-6    2.639685755588232E-5    1.122626718529883E-5    9.965527884263212E-1   -6.869742973373420E-2
 3.610702140428086E7     9.951704205443861E-1   -7.654424006631892E-2    4.507149126768652E-7    6.609488589938861E-6    7.312402610083565E-6    3.214207498726159E-7    9.965282004156846E-1   -7.642441398183074E-2
 4.010780156031206E7     9.947519245496291E-1   -8.468086355308199E-2   -7.001491357836207E-7    4.064925176869032E-6   -7.542740484745965E-6    1.512874458966664E-5    9.959850159288104E-1   -8.495351838077242E-2
 4.410858171634327E7     9.943784926111398E-1   -9.301468770418113E-2    9.345729357639432E-6    8.001111292497506E-6    1.314413695829706E-5   -1.229727278781556E-7    9.953491995476685E-1   -9.347353614231520E-2
 4.810936187237448E7     9.938301891278436E-1   -1.012707196395275E-1   -5.461157297152285E-6    1.367784199267137E-5   -1.388182176875868E-5   -4.004793782185522E-6    9.944058667274919E-1   -1.018191075735213E-1
 5.211014202840568E7     9.929945427950895E-1   -1.095557271534476E-1    3.208991045317744E-7   -4.610896489045807E-6   -1.111529647622058E-5    1.304770004815505E-5    9.934825634066095E-1   -1.103658991194302E-1
 5.611092218443689E7     9.919301837339989E-1   -1.177364169591321E-1   -1.667516257493059E-5    1.302464364369284E-5   -3.635047075541909E-6    1.423510951878798E-5    9.922545684868399E-1   -1.188910068436466E-1
 6.011170234046809E7     9.908128691417831E-1   -1.260298684816970E-1    2.690126895686948E-7    4.857237343949447E-6    3.809741882506745E-7    1.309800668147893E-5    9.910320995098344E-1   -1.272666707968673E-1
 6.411248249649930E7     9.894763356322852E-1   -1.342316988596655E-1   -7.139319295608468E-6    2.457724970897861E-5   -3.469507713346906E-6    3.382212433455858E-5    9.896281421789720E-1   -1.355863281102970E-1
 6.811326265253051E7     9.881947612464067E-1   -1.426973101991096E-1   -1.334771570409971E-5   -7.305410955574363E-6    1.299275801974381E-6   -2.817999726236044E-5    9.883261603943573E-1   -1.439545159681622E-1
 7.211404280856171E7     9.865918585025049E-1   -1.509107832891059E-1    3.974333342490576E-6   -1.764834939203201E-6    1.076602840325958E-5    1.683364367829911E-5    9.870997075454555E-1   -1.523360563008777E-1
 7.611482296459292E7     9.850434086915814E-1   -1.590992074317506E-1    6.719507604289401E-6    2.575133775473254E-5    7.176867282533175E-6   -1.072939452468118E-5    9.858615041682781E-1   -1.607208577976882E-1
 8.011560312062413E7     9.833809351729855E-1   -1.674221754213515E-1   -3.272642142535713E-6    1.274855960685547E-5   -1.068885808351337E-6   -1.141864156309413E-5    9.845947267135707E-1   -1.691625923888540E-1
 8.411638327665533E7     9.821003492272405E-1   -1.755904823280506E-1   -2.175210243604244E-6    7.063222174731876E-6   -1.103683962141243E-5    4.794998083921052E-6    9.834047529423948E-1   -1.775454036632740E-1
 8.811716343268654E7     9.807874714024972E-1   -1.839724022459345E-1    1.365618256644527E-6    1.157453149573630E-5    7.968474757293788E-6   -1.245069230895636E-6    9.820559263657406E-1   -1.859482288932628E-1
 9.211794358871774E7     9.792893797184123E-1   -1.922733833128096E-1   -5.783804101706289E-6    8.386590512534096E-6    3.980669727804949E-6    2.191687994170018E-5    9.806082828754300E-1   -1.943080386602593E-1
 9.611872374474895E7     9.777468858123342E-1   -2.005509619199656E-1    8.589695704149983E-7    1.892709658096780E-5   -1.395124151234222E-5    2.001201596942878E-5    9.786706723859455E-1   -2.026978276665751E-1
 1.001195039007802E8     9.762880378557670E-1   -2.087773792145976E-1    1.984387183490270E-5    1.906277310512663E-5   -9.520127671573987E-6    1.328735592214106E-5    9.767120888811831E-1   -2.110585476499172E-1
 1.041202840568114E8     9.745458376459989E-1   -2.169626515449751E-1   -1.364605309585941E-6    1.884845860873588E-5    1.750696025682830E-6    1.487526722545871E-5    9.746565293305348E-1   -2.195005487094989E-1
 1.081210642128426E8     9.725252207291645E-1   -2.252341167207130E-1   -4.208657728266005E-6    2.567477687563096E-5    1.333940733260689E-5    2.084768823612944E-5    9.726022831230822E-1   -2.277533026963249E-1
 1.121218443688738E8     9.706480930287023E-1   -2.334048803887835E-1    1.946182246333143E-5    2.622574983600083E-5    1.604116277333667E-5    4.282830524727308E-6    9.704887020846373E-1   -2.361772877187159E-1
 1.161226245249050E8     9.686888821981950E-1   -2.414538226858864E-1   -9.034269089052312E-6    2.385516691659602E-5    1.196681254715659E-5    2.175598224741402E-5    9.682667610237606E-1   -2.442650531121887E-1
 1.201234046809362E8     9.663468800673092E-1   -2.492906332689323E-1    4.592104200651352E-6    1.893940673538768E-5   -4.335434403718443E-6    1.028417074596955E-5    9.662466298636097E-1   -2.524532431930815E-1
 1.241241848369674E8     9.642399376194653E-1   -2.573270556325120E-1   -2.001724527631664E-6    1.057450392369283E-5   -4.129996570365339E-7    6.828234966285871E-6    9.642690934489910E-1   -2.606142281220542E-1
 1.281249649929986E8     9.621754731577686E-1   -2.652990551181477E-1   -1.589450975870454E-6    2.221281882257006E-5    8.463186228874840E-6    2.309473656799511E-5    9.621527750273829E-1   -2.688846799181098E-1
 1.321257451490298E8     9.599087583747035E-1   -2.731833854218674E-1   -5.139611524240453E-7    1.732434248086717E-5   -9.814599338136896E-6    1.333466141466440E-5    9.600187582797056E-1   -2.771512732213360E-1
 1.361265253050610E8     9.576804181809857E-1   -2.810901707602120E-1    6.335028154056160E-6    1.992013328535538E-5    2.809035280898426E-6    9.305641263535497E-6    9.577723221341873E-1   -2.851076516060215E-1
 1.401273054610922E8     9.555023215455275E-1   -2.890016388310885E-1    6.369389809971231E-8    2.197408444199436E-5    3.038161931882171E-6    2.857648345381162E-5    9.552626696801566E-1   -2.932993307544701E-1
 1.441280856171234E8     9.531203882384630E-1   -2.968285699837395E-1   -5.895685614627694E-6    2.108539582494038E-5    3.932139342217949E-7    1.544567333461726E-5    9.524591268008628E-1   -3.014383714290037E-1
 1.481288657731546E8     9.506557211397103E-1   -3.046302185520590E-1    9.932958735323858E-6    1.066564243691778E-5   -7.100965411945012E-6    2.329136004605215E-5    9.497058068142530E-1   -3.094188846359891E-1
 1.521296459291858E8     9.482460717346968E-1   -3.125478835389488E-1    4.901146824387408E-6    2.382689161486804E-5    2.913184030755674E-6    1.958676794310312E-5    9.467706856252650E-1   -3.174527572877079E-1
 1.561304260852171E8     9.454590468338598E-1   -3.203062638630789E-1    3.934443256199200E-6    2.684220853103107E-5    6.395873848529230E-6    1.895042646437971E-5    9.438712647691471E-1   -3.254103150207202E-1
 1.601312062412483E8     9.425923711777497E-1   -3.283294415863126E-1   -6.176186269078881E-6    3.080063777082350E-6    1.432954469585437E-5    1.661564037581416E-5    9.409669656594492E-1   -3.335358707895113E-1
 1.641319863972794E8     9.395800590228897E-1   -3.363598622827410E-1    2.120160243964791E-5    1.999259757678965E-5    1.687871499706819E-6    1.811788568081659E-5    9.380612979994936E-1   -3.414338291886490E-1
 1.681327665533107E8     9.367327136487534E-1   -3.443876281516204E-1    1.443227280877353E-5    1.659127868530598E-5   -3.443716113803740E-6    2.335027101096700E-5    9.352655905149704E-1   -3.495769475520895E-1
 1.721335467093419E8     9.336283091891484E-1   -3.523325587331744E-1    2.641471258383942E-6    2.379686114466051E-5    1.389179464408778E-5    9.418692602462128E-6    9.325904068461814E-1   -3.573846621623675E-1
 1.761343268653731E8     9.305997481466053E-1   -3.601609274800197E-1    1.605601799971836E-5    1.505447612694389E-5    7.407725758172106E-6    1.441550393916444E-5    9.296815466245412E-1   -3.653147075531011E-1
 1.801351070214043E8     9.276242310481391E-1   -3.680252584637320E-1    1.011613100236889E-5    1.837210867032907E-5    6.598493011975551E-6    1.359760625361805E-5    9.269691238825024E-1   -3.732122157433169E-1
 1.841358871774355E8     9.246356050899695E-1   -3.757534064364390E-1    9.272605603634136E-6    1.532560698703077E-5    5.313580175714135E-6    1.351174281900276E-5    9.239008858098791E-1   -3.810018812212161E-1
 1.881366673334667E8     9.217436196792420E-1   -3.834406008658781E-1    9.087834495456702E-6    2.273955810082499E-5    8.031933529927031E-6    3.868418806857939E-5    9.204680315385656E-1   -3.886718561966578E-1
 1.921374474894979E8     9.188031474722358E-1   -3.911056536952330E-1    1.313632905939113E-5    9.754097230105064E-6    1.708130557371427E-6    1.205385002342774E-5    9.170905400993241E-1   -3.963564150111801E-1
 1.961382276455291E8     9.156717942112905E-1   -3.987334210917350E-1   -5.279799605201010E-6    3.756162471900002E-5    1.423981468020982E-5    3.316898612796574E-5    9.136383031422528E-1   -4.039170356889938E-1
 2.001390078015603E8     9.125805415640561E-1   -4.062457440270495E-1    2.184553457541506E-5    4.375283944736239E-5    9.744128577364322E-6    2.425304128879876E-5    9.099416557779680E-1   -4.115175270247103E-1
 2.041397879575915E8     9.091805038439145E-1   -4.138356801351732E-1    7.969898368573455E-6    2.051659946588494E-5   -1.781015378764462E-6    2.901645145905370E-5    9.062903525949778E-1   -4.189838643468600E-1
 2.081405681136227E8     9.058117094362659E-1   -4.213113587439828E-1    5.471541126738524E-6    1.117994515638609E-5    1.383714977710290E-6    2.364551223750848E-5    9.027463797435682E-1   -4.264442894140519E-1
 2.121413482696539E8     9.022015036819332E-1   -4.287773899700463E-1    7.883051407013463E-6    3.610458418108201E-5    2.290528904101618E-5    2.715892177154851E-5    8.991300972664925E-1   -4.339751724650998E-1
 2.161421284256851E8     8.983670340009705E-1   -4.363189833570646E-1    6.388228604345064E-6    1.819457481048751E-5    1.551974335363688E-5    2.695314188413421E-5    8.957985163230898E-1   -4.414437452418982E-1
 2.201429085817164E8     8.943080639602049E-1   -4.438074528196264E-1    1.093332029914745E-6    2.148643817792651E-5    2.593368162776626E-5    1.732489642664365E-5    8.921719273839648E-1   -4.489590226527792E-1
 2.241436887377476E8     8.903078172746446E-1   -4.511255268501594E-1    6.002111769950238E-6    1.504918911256175E-5    1.327431755000354E-5    2.465181582038294E-5    8.885990518936917E-1   -4.564864452900856E-1
 2.281444688937787E8     8.864102078230833E-1   -4.582940570574177E-1    3.388067176007756E-6    2.947620941493108E-5    1.633598786793683E-5    3.647435582784018E-5    8.849215856841898E-1   -4.639213226469993E-1
 2.321452490498100E8     8.825470521412777E-1   -4.655740842946178E-1    1.671745698702825E-5    3.950996588374950E-5    1.706409152802442E-5    2.413978335003883E-5    8.808417453362653E-1   -4.713547142474758E-1
 2.361460292058412E8     8.785873781513638E-1   -4.729683822829046E-1    1.841214435301853E-5    2.155898753026057E-5    1.461973667173469E-5    1.897386769901566E-5    8.769124487688678E-1   -4.788390504008130E-1
 2.401468093618724E8     8.746859997551738E-1   -4.802884832747263E-1    1.650041671299729E-5    3.089439396024601E-5    1.431505039348284E-5    1.491672607799014E-5    8.726732245618067E-1   -4.862195198216361E-1
 2.441475895179036E8     8.708435113599963E-1   -4.876713864724773E-1    1.128014418471528E-5    5.588789702871445E-5    8.102719887759789E-6    2.186680530764345E-5    8.682090605233372E-1   -4.936273462000627E-1
 2.481483696739348E8     8.670538120918456E-1   -4.949273719253602E-1    9.547793134538075E-6    3.587819134330412E-5    2.488141735596078E-5    3.377332178352844E-5    8.636894724201618E-1   -5.009817500594035E-1
 2.521491498299660E8     8.631218744794347E-1   -5.024144591733026E-1    3.729725643089273E-5    3.265367963424119E-5    7.624053321137890E-6    2.500826811865834E-5    8.592627587987931E-1   -5.083895298841578E-1
 2.561499299859972E8     8.589129684270986E-1   -5.098582141234253E-1    2.898174789564882E-5    3.677931312860022E-5    2.374765979025216E-5    3.972686305924544E-5    8.549746005078134E-1   -5.157474288433419E-1
 2.601507101420284E8     8.548291327250490E-1   -5.170493667061715E-1    3.048041593568216E-5    8.796032414842839E-6    1.495141451316964E-5    4.306385454530587E-5    8.505327953238906E-1   -5.231032962355749E-1
 2.641514902980596E8     8.505991366960884E-1   -5.242886499876844E-1    2.530757944840249E-5    3.697539286237496E-5    2.040610367383589E-5    1.356876308609313E-5    8.462112895085315E-1   -5.303940507008713E-1
 2.681522704540908E8     8.462807844295159E-1   -5.312999505429212E-1    2.435538633069490E-5    2.362956835780086E-5    2.954242856412721E-5    4.915002217395497E-5    8.418805087720279E-1   -5.376012082672051E-1
 2.721530506101220E8     8.417099084796329E-1   -5.382514208025306E-1    1.413828471466780E-5    4.338555567493699E-5    1.146855635927281E-5    3.589607853791452E-5    8.374823369471006E-1   -5.447134496629167E-1
 2.761538307661532E8     8.374097927560995E-1   -5.450418885148011E-1    2.362845101524682E-5    4.213421756516027E-5    2.110621489149456E-5    3.931843295975059E-5    8.330702002997362E-1   -5.517493099690034E-1
 2.801546109221845E8     8.328117661125979E-1   -5.518901396971949E-1    2.238128628606589E-5    4.679726919231948E-5    2.634627679494002E-5    6.172405085909259E-5    8.285797101175556E-1   -5.587145559543275E-1
 2.841553910782157E8     8.282275172234045E-1   -5.586916142658456E-1    2.534403509479444E-5    2.663553971413473E-5    2.483466232200064E-5    1.157690597800005E-5    8.236491893122004E-1   -5.654124409613131E-1
 2.881561712342469E8     8.235279350434724E-1   -5.653927412608579E-1    3.233780778348822E-5    1.876183645617324E-5    2.768670730850642E-5    4.544027952881540E-5    8.187512493546710E-1   -5.722051217771623E-1
 2.921569513902780E8     8.186821224659336E-1   -5.720944330562330E-1    3.578343011693794E-5    3.182500587026620E-5    3.003559829419728E-5    2.563516175442843E-5    8.135380793117876E-1   -5.787345330087135E-1
 2.961577315463092E8     8.136035688714312E-1   -5.788548278932897E-1    2.071967811467676E-5    1.116709846390907E-5    2.602959811382325E-5    2.932025308549296E-5    8.084249572271154E-1   -5.858033628389152E-1
 3.001585117023405E8     8.085591041072002E-1   -5.854663871070497E-1    4.139496847654949E-5    2.541630658281325E-5    3.567604485187721E-5    2.195905435657563E-5    8.033428544060929E-1   -5.925115434998861E-1
 3.041592918583717E8     8.036407140983716E-1   -5.923628856256690E-1    2.604216699728140E-5    3.776871206725312E-5    2.002455658879000E-5    3.535679125589362E-5    7.982646195267764E-1   -5.992823577297604E-1
 3.081600720144029E8     7.985114827117805E-1   -5.989474515473554E-1    2.398861628852003E-5    4.165271665550336E-5    2.538754625717918E-5    3.598811230170020E-5    7.931273310905298E-1   -6.061765260981064E-1
 3.121608521704341E8     7.933537778182233E-1   -6.058179422423953E-1    5.144737795114880E-5    2.881626730586184E-5    3.653635592317387E-5    4.298404680315509E-5    7.879461691546306E-1   -6.128809065706108E-1
 3.161616323264653E8     7.885194468688568E-1   -6.126024401551912E-1    2.011264359573739E-5    3.664229723375150E-5    1.474029093118011E-5    3.280711555360913E-5    7.830015339080307E-1   -6.198158299742959E-1
 3.201624124824965E8     7.833745266388457E-1   -6.194571990952145E-1    3.270786212299023E-5    2.886323449758991E-5    3.642294960350745E-5    1.982142778940981E-5    7.777612978887477E-1   -6.265955858590641E-1
 3.241631926385277E8     7.782979383089597E-1   -6.262512781248475E-1    3.191100706262258E-5    2.505144145550193E-5    3.675756621635492E-5    2.257601270537626E-5    7.726015147422437E-1   -6.335016832780069E-1
 3.281639727945589E8     7.731405145847620E-1   -6.327714432701197E-1    2.562006605752411E-5    3.167894483834407E-5    4.387557466387311E-5    3.067847582069722E-5    7.672024837888573E-1   -6.398168398332269E-1
 3.321647529505901E8     7.679379298032040E-1   -6.392049008984569E-1    3.781900930666911E-5    2.727831902247534E-5    1.776882777051603E-5    5.956175101219610E-5    7.617408225324243E-1   -6.461480553038461E-1
 3.361655331066213E8     7.628724096929744E-1   -6.455543404464252E-1    2.824166658830958E-5    1.549094083268331E-5    3.685730801567136E-5    3.127575554264435E-5    7.560721621390393E-1   -6.524190714688648E-1
 3.401663132626525E8     7.575576922922940E-1   -6.518035863199778E-1    7.931914453079429E-6    4.388438505469679E-5    1.196625384286688E-5    2.498586632805950E-5    7.506774814475716E-1   -6.586104948664681E-1
 3.441670934186838E8     7.523382811967726E-1   -6.582048985684564E-1    2.589945010234752E-5    3.765351426174834E-5    2.775421969735160E-5    4.843309080495770E-5    7.452634448618477E-1   -6.648327340352050E-1
 3.481678735747150E8     7.469953833185582E-1   -6.645792125222344E-1    3.658106022302465E-5    1.969135578305885E-5    2.210902430997536E-5    2.908574644260547E-5    7.396255113491368E-1   -6.710677980602396E-1
 3.521686537307462E8     7.414381856898467E-1   -6.707353023251643E-1    3.340036322778587E-5    3.461537426890072E-5    2.091613537541094E-5    3.012588499101146E-5    7.339391048314989E-1   -6.772938865360753E-1
 3.561694338867773E8     7.356389530246843E-1   -6.769000209636130E-1    4.366268396041022E-5    3.832834468682143E-5    4.388501526723152E-5    2.538432240599991E-5    7.280831078181492E-1   -6.834058806831926E-1
 3.601702140428085E8     7.298797713875413E-1   -6.829299340396432E-1    4.164480531723811E-5    2.201102839685713E-5    3.993373971373207E-5    4.140410825414219E-5    7.224982271502923E-1   -6.893980220517908E-1
