# Hz S RI R 50.00
1.000000000000000000e+05	-1.136566039100062042e-03	2.396042766899999371e-04	1.000456084215940011e+00	9.576597891998588118e-04	1.000456084215940011e+00	9.576597891998588118e-04	8.087049136333421999e-04	1.583316864147408013e-04
4.100780155999999959e+06	-9.472040715700068584e-04	6.809324345199982485e-05	9.998472499285175896e-01	-4.148631553760395892e-03	9.998472499285175896e-01	-4.148631553760395892e-03	4.995974362275141340e-04	-2.185894790864299959e-04
8.101560312099999748e+06	-9.441624707899887170e-04	-4.211898133400088229e-05	9.999493262916793190e-01	-8.349101205562616673e-03	9.999493262916793190e-01	-8.349101205562616673e-03	5.165540890957033776e-04	-9.565214179531394631e-05
1.210234046800000034e+07	-1.101492219999999911e-03	1.823683136399981142e-05	9.998397071302709271e-01	-1.263158756071028517e-02	9.998397071302709271e-01	-1.263158756071028517e-02	5.939814098678438108e-04	-3.056356748234671902e-04
1.610312062399999984e+07	-1.027716136399958735e-03	-5.567026847400069478e-05	9.996623003353912740e-01	-1.687188920250854915e-02	9.996623003353912740e-01	-1.687188920250854915e-02	3.988946366619747740e-04	-2.588972926470748249e-04
2.010390078000000119e+07	-1.093095276599953536e-03	-2.024584202700019375e-04	9.994859250065437628e-01	-2.115390940042385232e-02	9.994859250065437628e-01	-2.115390940042385232e-02	4.073081568751371726e-04	-6.657178807820433517e-05
2.410468093600000069e+07	-1.202404115700050902e-03	-2.923821547599972370e-04	9.992820049372427293e-01	-2.529156522381251562e-02	9.992820049372427293e-01	-2.529156522381251562e-02	4.254895349399697400e-04	-1.528678579129553561e-04
2.810546109200000018e+07	-1.112572313200055341e-03	-3.252410675299993183e-04	9.990592423187116822e-01	-2.963568282858846867e-02	9.990592423187116822e-01	-2.963568282858846867e-02	3.796737516881485428e-04	-3.125473810440701993e-04
3.210624124799999967e+07	-1.107238719900038859e-03	-4.112122499899950601e-04	9.988813484804257570e-01	-3.378177516694320925e-02	9.988813484804257570e-01	-3.378177516694320925e-02	3.258953917437750966e-04	-3.626103300736345210e-04
3.610702140399999917e+07	-1.041852948299948345e-03	-5.048047515899961590e-04	9.986674927977806648e-01	-3.782371515839981491e-02	9.986674927977806648e-01	-3.782371515839981491e-02	3.430691777158443646e-04	-4.684934819718451402e-04
4.010780156000000238e+07	-9.916231752400417321e-04	-5.046288808499971301e-04	9.986053071104415979e-01	-4.192012662208177698e-02	9.986053071104415979e-01	-4.192012662208177698e-02	3.256416536957048202e-04	-4.273204137313937846e-04
4.410858171599999815e+07	-1.023840556800048596e-03	-4.897662612900062192e-04	9.985293710863564209e-01	-4.605743449479896001e-02	9.985293710863564209e-01	-4.605743449479896001e-02	5.113758744608225488e-04	-5.005053872312280328e-04
4.810936187200000137e+07	-9.225873966399733561e-04	-4.983235073899999756e-04	9.984117874793816405e-01	-5.019190923268805615e-02	9.984117874793816405e-01	-5.019190923268805615e-02	4.989468487102486759e-04	-5.003539038500045373e-04
5.211014202799999714e+07	-9.367319879199920152e-04	-4.504164970700054145e-04	9.982161184797951892e-01	-5.431928915010195841e-02	9.982161184797951892e-01	-5.431928915010195841e-02	5.159003031546304310e-04	-6.079326181022198447e-04
5.611092218400000036e+07	-9.467598621599737641e-04	-5.047502946600029849e-04	9.979670076903719433e-01	-5.848663194955259353e-02	9.979670076903719433e-01	-5.848663194955259353e-02	4.152797686561004726e-04	-4.507351849088979401e-04
6.011170234000000358e+07	-9.295177900899842527e-04	-5.389322512400068765e-04	9.976729911741193391e-01	-6.264751418139499761e-02	9.976729911741193391e-01	-6.264751418139499761e-02	3.745286599816337455e-04	-4.441380709632526983e-04
6.411248249599999934e+07	-1.006901877799948331e-03	-5.582237286100022455e-04	9.973355527806581078e-01	-6.682189014896851298e-02	9.973355527806581078e-01	-6.682189014896851298e-02	3.195383335967099509e-04	-3.463640976134095897e-04
6.811326265299999714e+07	-9.897470836800481564e-04	-5.064536406899911025e-04	9.969556129608502237e-01	-7.110023394206316238e-02	9.969556129608502237e-01	-7.110023394206316238e-02	3.764819590667875917e-04	-3.738126115169813175e-04
7.211404280900000036e+07	-9.263449683100111187e-04	-4.363249560400129764e-04	9.964348721513307527e-01	-7.533429136569851081e-02	9.964348721513307527e-01	-7.533429136569851081e-02	3.595180381417796339e-04	-2.925820300960469637e-04
7.611482296500000358e+07	-8.606497048200267841e-04	-5.206300163899946210e-04	9.960063443252880067e-01	-7.942696273450559896e-02	9.960063443252880067e-01	-7.942696273450559896e-02	2.390879744586855873e-04	-3.257371667126038881e-04
8.011560312100000679e+07	-9.142235761500083768e-04	-5.108613482300017328e-04	9.955811050908386362e-01	-8.356859557495503743e-02	9.955811050908386362e-01	-8.356859557495503743e-02	1.817800539024863539e-04	-4.900394490502997134e-04
8.411638327699999511e+07	-9.401513136699790607e-04	-5.188750670699904255e-04	9.952328138800868862e-01	-8.767396410067690438e-02	9.952328138800868862e-01	-8.767396410067690438e-02	3.337839293541908659e-04	-5.098052234730351094e-04
8.811716343299999833e+07	-9.549280927300118904e-04	-5.577222250700009099e-04	9.949124098219108703e-01	-9.180627215780734485e-02	9.949124098219108703e-01	-9.180627215780734485e-02	4.504331185779150400e-04	-6.658213400689938326e-04
9.211794358900000155e+07	-1.021808365400000973e-03	-5.828968101599941694e-04	9.945377429991280049e-01	-9.592164237120549830e-02	9.945377429991280049e-01	-9.592164237120549830e-02	5.716826171991365316e-04	-8.012893998518986127e-04
9.611872374500000477e+07	-1.098965919899996813e-03	-5.716148084999870312e-04	9.942092782100216963e-01	-1.000600794932456072e-01	9.942092782100216963e-01	-1.000600794932456072e-01	6.019080135975464398e-04	-9.170587147087325185e-04
1.001195039000000060e+08	-1.142343032899950433e-03	-6.498569976499946055e-04	9.938478707553820568e-01	-1.041581517325227135e-01	9.938478707553820568e-01	-1.041581517325227135e-01	7.618382265382870775e-04	-9.558205738530611189e-04
1.041202840600000024e+08	-1.131369178700047939e-03	-8.356402999500078810e-04	9.934018251492574558e-01	-1.082682744428118821e-01	9.934018251492574558e-01	-1.082682744428118821e-01	7.599118158598385051e-04	-8.762845846949338146e-04
1.081210642099999934e+08	-1.189501697399952818e-03	-8.945873534400017313e-04	9.929300461403823830e-01	-1.124366630795654021e-01	9.929300461403823830e-01	-1.124366630795654021e-01	6.728658444760174644e-04	-9.295297892795271631e-04
1.121218443700000048e+08	-1.128996783499980339e-03	-9.630130292100078700e-04	9.924350348505085462e-01	-1.166058825130835142e-01	9.924350348505085462e-01	-1.166058825130835142e-01	6.663214334577209890e-04	-8.638402983990114969e-04
1.161226245199999958e+08	-1.070137884899957648e-03	-1.155412979800013451e-03	9.919591285905428046e-01	-1.207337062018081358e-01	9.919591285905428046e-01	-1.207337062018081358e-01	5.286883640668337860e-04	-6.656939845958516518e-04
1.201234046800000072e+08	-9.687279004599868041e-04	-1.158006206899986346e-03	9.913478311661283460e-01	-1.247636380300849446e-01	9.913478311661283460e-01	-1.247636380300849446e-01	2.978833293883700753e-04	-7.137159219709386876e-04
1.241241848400000036e+08	-8.350847460999455407e-04	-1.145782357799995932e-03	9.907971518167145719e-01	-1.289327657038546182e-01	9.907971518167145719e-01	-1.289327657038546182e-01	1.960530419891140779e-04	-6.617248079293329551e-04
1.281249649899999946e+08	-7.396534173299551540e-04	-1.165665352900024931e-03	9.902511297334475326e-01	-1.330348875775573536e-01	9.902511297334475326e-01	-1.330348875775573536e-01	1.897513663036939403e-04	-6.307665581984939901e-04
1.321257451500000060e+08	-6.213404979600323230e-04	-1.050426408599980377e-03	9.896367734932305371e-01	-1.371764572868455767e-01	9.896367734932305371e-01	-1.371764572868455767e-01	1.379156183351709446e-04	-6.097616822286003324e-04
1.361265253100000024e+08	-6.037501692000013520e-04	-9.558365512299937805e-04	9.890341396927484485e-01	-1.413334265831005798e-01	9.890341396927484485e-01	-1.413334265831005798e-01	2.274380801080490462e-04	-5.253692687027357658e-04
1.401273054600000083e+08	-6.838275100400359463e-04	-8.069277506699834568e-04	9.884451728432332995e-01	-1.454365965387768855e-01	9.884451728432332995e-01	-1.454365965387768855e-01	4.983479249449066948e-04	-5.635787933211292922e-04
1.441280856200000048e+08	-7.030270378699521316e-04	-6.368484383699747316e-04	9.877976199509006516e-01	-1.495528091910938717e-01	9.877976199509006516e-01	-1.495528091910938717e-01	6.443304839857477793e-04	-5.714456425987227833e-04
1.481288657700000107e+08	-7.322847902599960435e-04	-5.150244465599863571e-04	9.870986022506157420e-01	-1.536466803744333809e-01	9.870986022506157420e-01	-1.536466803744333809e-01	8.420915600526952989e-04	-5.573481963150152870e-04
1.521296459300000072e+08	-8.370455620999586125e-04	-5.541015560400206538e-04	9.864754524081562614e-01	-1.577137590748333429e-01	9.864754524081562614e-01	-1.577137590748333429e-01	1.042675823416186216e-03	-5.341681171202986066e-04
1.561304260900000036e+08	-1.008640820500006580e-03	-6.060215922200071822e-04	9.857406851955663463e-01	-1.617552600477427938e-01	9.857406851955663463e-01	-1.617552600477427938e-01	1.155961798239403234e-03	-4.577010494758416374e-04
1.601312062400000095e+08	-1.080923934099975448e-03	-6.552275849999733559e-04	9.850644965328620994e-01	-1.659483768325999697e-01	9.850644965328620994e-01	-1.659483768325999697e-01	1.054554098813869278e-03	-4.121715337903015326e-04
1.641319864000000060e+08	-1.210516280400031341e-03	-8.078186797599863330e-04	9.843506858491573031e-01	-1.701061799374959382e-01	9.843506858491573031e-01	-1.701061799374959382e-01	9.591610179272608457e-04	-3.634447370128014677e-04
1.681327665500000119e+08	-1.192365939300055189e-03	-8.949826661799886729e-04	9.836802886189391915e-01	-1.742260424288028242e-01	9.836802886189391915e-01	-1.742260424288028242e-01	8.641383460868949000e-04	-4.588563884510880810e-04
1.721335467100000083e+08	-1.311993338499961581e-03	-1.055365470099989267e-03	9.829390482929093453e-01	-1.783126052914799642e-01	9.829390482929093453e-01	-1.783126052914799642e-01	7.902886759520432467e-04	-4.906599737251977553e-04
1.761343268700000048e+08	-1.204116170600011415e-03	-1.156045553300011353e-03	9.821785753039657951e-01	-1.823549384188615785e-01	9.821785753039657951e-01	-1.823549384188615785e-01	6.434769351915284145e-04	-6.048948232362531732e-04
1.801351070200000107e+08	-1.117998630499994484e-03	-1.240319184199978331e-03	9.814095950595588258e-01	-1.864408491883128294e-01	9.814095950595588258e-01	-1.864408491883128294e-01	6.217370859597172363e-04	-6.538077500418354535e-04
1.841358871800000072e+08	-1.100162623300038334e-03	-1.260359320700010777e-03	9.806732348069849836e-01	-1.904535664688447039e-01	9.806732348069849836e-01	-1.904535664688447039e-01	6.235242419008212890e-04	-7.713987423254243993e-04
1.881366673300000131e+08	-1.088215702899963944e-03	-1.342457300899990930e-03	9.798468691291499777e-01	-1.944863492836452212e-01	9.798468691291499777e-01	-1.944863492836452212e-01	8.845411845299227822e-04	-6.788681671830914871e-04
1.921374474900000095e+08	-8.294392289399654672e-04	-1.422412728300015416e-03	9.790358102576460775e-01	-1.985660179177769769e-01	9.790358102576460775e-01	-1.985660179177769769e-01	8.494511847823192022e-04	-5.934322090473286753e-04
1.961382276500000060e+08	-8.596513730999566505e-04	-1.354229457899980282e-03	9.781653807213690488e-01	-2.026386329218697047e-01	9.781653807213690488e-01	-2.026386329218697047e-01	1.100889225222855851e-03	-5.602973279558688072e-04
2.001390078000000119e+08	-7.345058987999751902e-04	-1.321596326300022994e-03	9.773190867242335100e-01	-2.067178411823984152e-01	9.773190867242335100e-01	-2.067178411823984152e-01	1.169858914363702557e-03	-4.290524644092740827e-04
2.041397879600000083e+08	-6.871959947200024761e-04	-1.224332238000003020e-03	9.764123413309311328e-01	-2.108239870567778229e-01	9.764123413309311328e-01	-2.108239870567778229e-01	1.226675260196179260e-03	-4.428359725977441884e-04
2.081405681100000143e+08	-6.670294826900403625e-04	-1.162979525200003028e-03	9.755401371412870670e-01	-2.148726043075353254e-01	9.755401371412870670e-01	-2.148726043075353254e-01	1.266205668773251036e-03	-4.221667764763226073e-04
2.121413482700000107e+08	-6.843268600500440613e-04	-9.916051341399834129e-04	9.746038941536455669e-01	-2.189889173133797995e-01	9.746038941536455669e-01	-2.189889173133797995e-01	1.293700161549878134e-03	-4.180540926885194090e-04
2.161421284300000072e+08	-7.629452893499477639e-04	-7.771865757499885063e-04	9.736988697592100506e-01	-2.231017800622368541e-01	9.736988697592100506e-01	-2.231017800622368541e-01	1.202669476077873481e-03	-6.117933965459200311e-04
2.201429085800000131e+08	-8.593498108200313705e-04	-6.778605727699726913e-04	9.726304627802236924e-01	-2.272118217860099598e-01	9.726304627802236924e-01	-2.272118217860099598e-01	1.209998634495636476e-03	-6.782276595835329703e-04
2.241436887400000095e+08	-1.007973634600034529e-03	-6.085794325800253368e-04	9.716097000825288932e-01	-2.311950465234171304e-01	9.716097000825288932e-01	-2.311950465234171304e-01	1.229182678001153155e-03	-7.858944835146726166e-04
2.281444688899999857e+08	-9.813874627599972200e-04	-6.278924471500024751e-04	9.706437775138434532e-01	-2.351266239492779686e-01	9.706437775138434532e-01	-2.351266239492779686e-01	1.027960316711133085e-03	-8.421457143508955835e-04
2.321452490500000119e+08	-1.220078506599997286e-03	-6.636815826400190802e-04	9.696610058432647561e-01	-2.390629493370831637e-01	9.696610058432647561e-01	-2.390629493370831637e-01	1.200494119609514000e-03	-8.285448160104068836e-04
2.361460292100000083e+08	-1.388183629799977442e-03	-8.361780656899742148e-04	9.686211124098415004e-01	-2.430217689865083741e-01	9.686211124098415004e-01	-2.430217689865083741e-01	1.347692020419346496e-03	-7.998892351569404950e-04
2.401468093600000143e+08	-1.462550359400016870e-03	-9.147308820299791029e-04	9.676582776623678939e-01	-2.469782382770660534e-01	9.676582776623678939e-01	-2.469782382770660534e-01	1.358223462326395899e-03	-8.464116816819381491e-04
2.441475895200000107e+08	-1.501887107799970700e-03	-1.073680546600008561e-03	9.666726306017723314e-01	-2.510513190882681656e-01	9.666726306017723314e-01	-2.510513190882681656e-01	1.400308998715429649e-03	-6.275503943739300450e-04
2.481483696699999869e+08	-1.491770400099956539e-03	-1.295992414399982145e-03	9.656530320996571382e-01	-2.551020873379949427e-01	9.656530320996571382e-01	-2.551020873379949427e-01	1.459815576115082881e-03	-2.654558123367156339e-04
2.521491498300000131e+08	-1.381253203299959154e-03	-1.413124418200017995e-03	9.645633409464143826e-01	-2.591912793056065922e-01	9.645633409464143826e-01	-2.591912793056065922e-01	1.622451558818499085e-03	-2.032054335654364047e-04
2.561499299900000095e+08	-1.238115163999964352e-03	-1.502006354100027252e-03	9.634417726338417864e-01	-2.632919599849357639e-01	9.634417726338417864e-01	-2.632919599849357639e-01	1.601289835188286249e-03	-2.432559180477518066e-04
2.601507101399999857e+08	-1.112812485399961243e-03	-1.496880542499967603e-03	9.623858876987522182e-01	-2.672900565273306217e-01	9.623858876987522182e-01	-2.672900565273306217e-01	1.585902370257975249e-03	-3.066955778399582319e-04
2.641514903000000119e+08	-8.927344590400343449e-04	-1.515250598099981971e-03	9.612982433726867670e-01	-2.713045715442297112e-01	9.612982433726867670e-01	-2.713045715442297112e-01	1.465718251024534461e-03	-4.673500756087060936e-04
2.681522704499999881e+08	-7.558873605899572076e-04	-1.424154883300055019e-03	9.601497507154325151e-01	-2.752567166361345463e-01	9.601497507154325151e-01	-2.752567166361345463e-01	1.467032222081050656e-03	-6.175825514126065310e-04
2.721530506100000143e+08	-6.192464406400423034e-04	-1.154635836499995566e-03	9.590112171161122578e-01	-2.792568382848200081e-01	9.590112171161122578e-01	-2.792568382848200081e-01	1.310016485951340584e-03	-9.168607937760928431e-04
2.761538307699999809e+08	-6.115193146299935378e-04	-1.066214709199986505e-03	9.578667345668009370e-01	-2.831938084601829386e-01	9.578667345668009370e-01	-2.831938084601829386e-01	1.388405230398194121e-03	-8.311936718864855033e-04
2.801546109200000167e+08	-7.245855819899558233e-04	-7.896550880900357009e-04	9.566799840076626316e-01	-2.871624211340633726e-01	9.566799840076626316e-01	-2.871624211340633726e-01	1.549794888626526050e-03	-9.613389744043775555e-04
2.841553910799999833e+08	-8.785263781899694917e-04	-5.755947959199536612e-04	9.554532267645714505e-01	-2.911589701554631038e-01	9.554532267645714505e-01	-2.911589701554631038e-01	1.791972030544824882e-03	-8.905207121704421984e-04
2.881561712300000191e+08	-1.086214402699958509e-03	-4.008640569700403552e-04	9.542115325226572242e-01	-2.951241052860310021e-01	9.542115325226572242e-01	-2.951241052860310021e-01	1.985292659513018896e-03	-7.864931716844190479e-04
2.921569513899999857e+08	-1.353410507900054465e-03	-3.460847412399825629e-04	9.529191196668053143e-01	-2.991036337590658456e-01	9.529191196668053143e-01	-2.991036337590658456e-01	2.160202115342429140e-03	-5.732844086743999531e-04
2.961577315500000119e+08	-1.570388880700046997e-03	-4.078782782199750264e-04	9.515239665478633091e-01	-3.030811118537142801e-01	9.515239665478633091e-01	-3.030811118537142801e-01	2.299719759080747460e-03	-4.156171273512878966e-04
3.001585116999999881e+08	-1.725472160099994707e-03	-5.092558188000138094e-04	9.501624389022798045e-01	-3.070236807405628543e-01	9.501624389022798045e-01	-3.070236807405628543e-01	2.297043275498352344e-03	-2.082242027523393494e-04
3.041592918600000143e+08	-1.829404927400025017e-03	-6.696798028099635366e-04	9.489119944128628914e-01	-3.109700186879472139e-01	9.489119944128628914e-01	-3.109700186879472139e-01	2.306308303747227426e-03	-2.013949343587148871e-04
3.081600720099999905e+08	-1.868639166900054388e-03	-8.961665924299699881e-04	9.475217003467607535e-01	-3.148679035229593470e-01	9.475217003467607535e-01	-3.148679035229593470e-01	2.199198185601108132e-03	-5.960792141454940990e-05
3.121608521700000167e+08	-1.828585552600014985e-03	-9.928512573600392025e-04	9.462410117371468088e-01	-3.187928344984768958e-01	9.462410117371468088e-01	-3.187928344984768958e-01	2.064818366893075765e-03	-3.351791205579069842e-04
3.161616323299999833e+08	-1.835812093299971082e-03	-1.115893990199956281e-03	9.449589716331378009e-01	-3.226910035235027174e-01	9.449589716331378009e-01	-3.226910035235027174e-01	2.213055698078058263e-03	-3.463944747978936868e-04
3.201624124800000191e+08	-1.734681445999974869e-03	-1.107990558499971634e-03	9.436319340737047145e-01	-3.266532003776042026e-01	9.436319340737047145e-01	-3.266532003776042026e-01	2.233958027724216450e-03	-6.203721351852523177e-04
3.241631926399999857e+08	-1.722545856200019977e-03	-1.191505816199977651e-03	9.423075865063229584e-01	-3.305480344714021301e-01	9.423075865063229584e-01	-3.305480344714021301e-01	2.361502435317038191e-03	-8.049159832586240577e-04
3.281639727900000215e+08	-1.653038574599974058e-03	-1.227844130599953232e-03	9.409399534769443685e-01	-3.344236001575242589e-01	9.409399534769443685e-01	-3.344236001575242589e-01	2.370369125878241199e-03	-9.054723543727615431e-04
3.321647529499999881e+08	-1.636817988500016913e-03	-1.134159477599982601e-03	9.395928221701661531e-01	-3.382375999706426217e-01	9.395928221701661531e-01	-3.382375999706426217e-01	2.451826629863048702e-03	-1.163058362370429687e-03
3.361655331100000143e+08	-1.586856290599958147e-03	-1.140596249900039261e-03	9.382730202158087174e-01	-3.421365779912182159e-01	9.382730202158087174e-01	-3.421365779912182159e-01	2.420787034099715872e-03	-1.070972756476504164e-03
3.401663132599999905e+08	-1.689556637500034143e-03	-1.145251248400036125e-03	9.368280543060737431e-01	-3.460768096586526177e-01	9.368280543060737431e-01	-3.460768096586526177e-01	2.490916552615281797e-03	-8.016769103804789829e-04
