# Hz S RI R 50.00
1.000000000000000000e+05	2.200130000000743991e-04	-9.313490000000001524e-04	9.998967908138950422e-01	5.994861260344449107e-04	9.998967908138950422e-01	5.994861260344449107e-04	-5.279317611548899145e-04	8.478041075349763284e-04
4.100780155999999959e+06	1.626390000000199620e-04	8.951570000000073945e-05	9.999819183279600177e-01	-4.315124401251806997e-03	9.999819183279600177e-01	-4.315124401251806997e-03	-1.488363282381463353e-04	-8.694292921854875425e-05
8.101560311999999918e+06	1.136069999999600455e-04	1.083309999999997053e-04	9.999020406735197319e-01	-8.547326591102872434e-03	9.999020406735197319e-01	-8.547326591102872434e-03	-4.993560587830807735e-05	-3.149737940687540776e-04
1.210234047000000067e+07	3.389629999994705979e-05	8.350089999999837920e-05	9.998360218455090154e-01	-1.272419430224997795e-02	9.998360218455090154e-01	-1.272419430224997795e-02	-1.334243371976930146e-04	-4.926626916174674459e-04
1.610312061999999918e+07	-1.245109999999938753e-04	-8.319610000000199346e-05	9.997220479292079354e-01	-1.687488783105726975e-02	9.997220479292079354e-01	-1.687488783105726975e-02	-2.042969873923451566e-04	-6.447611187854679956e-04
2.010390078000000119e+07	-2.198580000000171521e-04	-2.634550000000027148e-04	9.996461895191334213e-01	-2.111175456781179752e-02	9.996461895191334213e-01	-2.111175456781179752e-02	-2.379346020736861837e-04	-7.845734823060331086e-04
2.410468094000000134e+07	-2.094719999999884426e-04	-4.404309999999979656e-04	9.994264496574041257e-01	-2.520923617624924729e-02	9.994264496574041257e-01	-2.520923617624924729e-02	-5.350745009618305785e-04	-6.672751314008164942e-04
2.810546108999999985e+07	-1.784719999999849786e-04	-7.230739999999969466e-04	9.993364122935171068e-01	-2.935192321658114389e-02	9.993364122935171068e-01	-2.935192321658114389e-02	-4.999806444339495838e-04	-6.286622432069392807e-04
3.210624125000000000e+07	-1.923369999999868796e-04	-8.512410000000025789e-04	9.992190690695866850e-01	-3.349288388647957831e-02	9.992190690695866850e-01	-3.349288388647957831e-02	-2.965176462156086327e-04	-6.613103535518009227e-04
3.610702139999999851e+07	8.461850000029860590e-06	-9.047940000000004312e-04	9.990323384063838352e-01	-3.789024953630155956e-02	9.990323384063838352e-01	-3.789024953630155956e-02	-4.660468843755827110e-04	-7.819050672259142366e-04
4.010780156000000238e+07	1.163309999999695421e-04	-1.050117000000003187e-03	9.988255730405726229e-01	-4.205191047971690299e-02	9.988255730405726229e-01	-4.205191047971690299e-02	-3.700714626216841533e-04	-7.163999862545368568e-04
4.410858171999999881e+07	1.948360000000315395e-04	-1.077235999999995308e-03	9.986470025887197455e-01	-4.619963163932212097e-02	9.986470025887197455e-01	-4.619963163932212097e-02	-2.585884502298291384e-04	-9.081235808563544896e-04
4.810936186999999732e+07	2.665389999999545623e-04	-1.033264000000005955e-03	9.984889599346684630e-01	-5.039203731480217802e-02	9.984889599346684630e-01	-5.039203731480217802e-02	-1.903953945162147770e-04	-1.011526421753543336e-03
5.211014203000000119e+07	3.019629999999606795e-04	-9.525620000000040166e-04	9.982247088057866202e-01	-5.459525137527829197e-02	9.982247088057866202e-01	-5.459525137527829197e-02	-1.625196989758915373e-04	-1.179798378104686581e-03
5.611092217999999970e+07	2.263300000000523227e-04	-8.548899999999970412e-04	9.979771807388874150e-01	-5.871358360981435154e-02	9.979771807388874150e-01	-5.871358360981435154e-02	-9.495520735502207014e-05	-1.423618261226679152e-03
6.011170234000000358e+07	1.062939999999512608e-04	-9.070649999999985669e-04	9.976825072877506528e-01	-6.291330025713488816e-02	9.976825072877506528e-01	-6.291330025713488816e-02	-1.021952523026589557e-04	-1.494280183426124507e-03
6.411248250000000000e+07	6.248819999998822539e-06	-9.565539999999983500e-04	9.973583059675874551e-01	-6.708170270599407570e-02	9.973583059675874551e-01	-6.708170270599407570e-02	-1.480017439332799228e-04	-1.627795897292100887e-03
6.811326265000000596e+07	-1.902000000000291804e-04	-1.008914999999999118e-03	9.970540065607531588e-01	-7.133082474974648812e-02	9.970540065607531588e-01	-7.133082474974648812e-02	-1.533917177827322405e-04	-1.713536194424440402e-03
7.211404281000000238e+07	-1.951679999999678117e-04	-1.130529999999990926e-03	9.966735998080846759e-01	-7.552799531938941824e-02	9.966735998080846759e-01	-7.552799531938941824e-02	-1.804333509745515308e-04	-1.639323285896436338e-03
7.611482295999999344e+07	-2.010609999999467571e-04	-1.383162999999992598e-03	9.962879779439819394e-01	-7.962349409827662594e-02	9.962879779439819394e-01	-7.962349409827662594e-02	-2.639490042924188813e-04	-1.774930399606626302e-03
8.011560312000000477e+07	-1.826929999999562463e-04	-1.556766999999987123e-03	9.959312011153830246e-01	-8.374994934085966403e-02	9.959312011153830246e-01	-8.374994934085966403e-02	-4.688281480300127992e-04	-1.793913486749149945e-03
8.411638328000000119e+07	-1.491829999999971790e-04	-1.644183999999992984e-03	9.956175793022302711e-01	-8.793039100301475175e-02	9.956175793022302711e-01	-8.793039100301475175e-02	-3.917931461410190260e-04	-1.854205291413133470e-03
8.811716343000000715e+07	-8.194080000001324748e-05	-1.778110999999998670e-03	9.952667408816312511e-01	-9.205571157338937605e-02	9.952667408816312511e-01	-9.205571157338937605e-02	-4.268740592747128975e-04	-1.805047963452235905e-03
9.211794359000000358e+07	-5.717869999999336799e-05	-1.831439999999989743e-03	9.949059380654019513e-01	-9.623205367123127685e-02	9.949059380654019513e-01	-9.623205367123127685e-02	-1.665470723139385995e-04	-1.916299814994817724e-03
9.611872373999999464e+07	-9.095629999955720697e-06	-1.833486999999994760e-03	9.944711119100009267e-01	-1.003926691430410412e-01	9.944711119100009267e-01	-1.003926691430410412e-01	-1.172082329168497002e-04	-2.010416816526013582e-03
1.001195039000000060e+08	2.165039999946325074e-06	-1.836574000000007045e-03	9.940364529681187111e-01	-1.045577175188670549e-01	9.940364529681187111e-01	-1.045577175188670549e-01	-1.194722591911542950e-04	-2.121826659979610293e-03
1.041202840999999940e+08	-3.316900000005507110e-05	-1.870208000000012517e-03	9.935627656920118511e-01	-1.086726139689141862e-01	9.935627656920118511e-01	-1.086726139689141862e-01	-1.360052663603368594e-04	-2.183852090700708678e-03
1.081210642000000030e+08	-5.566430000003552963e-05	-1.865472000000006902e-03	9.930628579850402371e-01	-1.128585014050403901e-01	9.930628579850402371e-01	-1.128585014050403901e-01	-1.815525781809558840e-04	-2.335970085539245972e-03
1.121218444000000060e+08	-1.470260000000500611e-04	-1.973085000000012867e-03	9.925747503743205247e-01	-1.169756522745721283e-01	9.925747503743205247e-01	-1.169756522745721283e-01	-1.885785572534927085e-04	-2.396646277414835567e-03
1.161226245000000000e+08	-2.170120000000164140e-04	-2.087340999999992563e-03	9.921288637988348036e-01	-1.211266693419705970e-01	9.921288637988348036e-01	-1.211266693419705970e-01	-3.436214222906509158e-04	-2.399916101599189767e-03
1.201234047000000030e+08	-2.777830000000314215e-04	-2.238801000000012909e-03	9.915881854653849636e-01	-1.252243717785012922e-01	9.915881854653849636e-01	-1.252243717785012922e-01	-4.535460267360355699e-04	-2.328569403368628381e-03
1.241241847999999970e+08	-2.006159999999868049e-04	-2.283007000000003995e-03	9.910402558004772766e-01	-1.293717499808439142e-01	9.910402558004772766e-01	-1.293717499808439142e-01	-5.109232463945130153e-04	-2.491360167602009717e-03
1.281249650000000000e+08	-2.202510000000044207e-04	-2.514100000000019097e-03	9.904903017992352510e-01	-1.335106479076461072e-01	9.904903017992352510e-01	-1.335106479076461072e-01	-4.736712446014074325e-04	-2.321468966968633779e-03
1.321257450999999940e+08	-1.690500000000041362e-04	-2.536804000000004045e-03	9.899667753385751334e-01	-1.376223191819709035e-01	9.899667753385751334e-01	-1.376223191819709035e-01	-4.746522210418792397e-04	-2.420799361826050412e-03
1.361265253000000119e+08	-7.913500000000794898e-05	-2.573001000000019189e-03	9.893879568550006942e-01	-1.417464908577260041e-01	9.893879568550006942e-01	-1.417464908577260041e-01	-3.774717326643099637e-04	-2.463058622313040250e-03
1.401273055000000000e+08	-7.345729999996808944e-05	-2.537467000000015026e-03	9.887809953258054341e-01	-1.459448553381680336e-01	9.887809953258054341e-01	-1.459448553381680336e-01	-2.704032228812507880e-04	-2.456296801436829401e-03
1.441280855999999940e+08	-1.497820000029292942e-06	-2.487603999999976612e-03	9.880918941918697129e-01	-1.501030826792447426e-01	9.880918941918697129e-01	-1.501030826792447426e-01	-1.223023336886596259e-04	-2.494653022842669918e-03
1.481288658000000119e+08	-1.875569999998372411e-05	-2.519559999999976263e-03	9.873668143405707198e-01	-1.541717509281611276e-01	9.873668143405707198e-01	-1.541717509281611276e-01	3.505994374623777870e-05	-2.663723623461655352e-03
1.521296459000000060e+08	-6.793059999998796172e-05	-2.443244999999982792e-03	9.866671990841519024e-01	-1.582487688560646477e-01	9.866671990841519024e-01	-1.582487688560646477e-01	2.392756225693543071e-05	-2.996399147176052012e-03
1.561304260999999940e+08	-2.367979999999824140e-04	-2.523887999999973718e-03	9.860475648553874706e-01	-1.623516480561056352e-01	9.860475648553874706e-01	-1.623516480561056352e-01	2.745292954992159442e-05	-3.027399513764583890e-03
1.601312061999999881e+08	-3.035260000000539193e-04	-2.544971000000006978e-03	9.853285677177976432e-01	-1.665011693752404542e-01	9.853285677177976432e-01	-1.665011693752404542e-01	-1.873014185250108325e-04	-3.190023813671891313e-03
1.641319864000000060e+08	-4.126030000000113773e-04	-2.684956000000016541e-03	9.846136800211383600e-01	-1.706055428126713736e-01	9.846136800211383600e-01	-1.706055428126713736e-01	-2.942758653791865877e-04	-3.204829825384001348e-03
1.681327665999999940e+08	-5.181570000000195082e-04	-2.827146999999974753e-03	9.838798226389293688e-01	-1.747202252909884901e-01	9.838798226389293688e-01	-1.747202252909884901e-01	-4.191404657415069134e-04	-3.271449317648651364e-03
1.721335466999999881e+08	-5.419180000000298810e-04	-2.970687000000026955e-03	9.830882303110808351e-01	-1.788210691875383451e-01	9.830882303110808351e-01	-1.788210691875383451e-01	-5.002523513346011355e-04	-3.169061367157028665e-03
1.761343269000000060e+08	-4.648879999999964204e-04	-3.135043999999975305e-03	9.824191606956804712e-01	-1.829520678015170987e-01	9.824191606956804712e-01	-1.829520678015170987e-01	-5.785207696955452662e-04	-3.199306347691750676e-03
1.801351070000000000e+08	-4.531789999999704614e-04	-3.181666000000027850e-03	9.816311228379061005e-01	-1.870727166702848276e-01	9.816311228379061005e-01	-1.870727166702848276e-01	-5.373782186276752394e-04	-3.174377192413075418e-03
1.841358871999999881e+08	-4.695689999999475006e-04	-3.276184000000015306e-03	9.808197502302854476e-01	-1.911611668079435944e-01	9.808197502302854476e-01	-1.911611668079435944e-01	-3.474971602147921678e-04	-3.186509812622341509e-03
1.881366673000000119e+08	-3.495820000000147195e-04	-3.326092000000002279e-03	9.800079641301225886e-01	-1.952714556656024447e-01	9.800079641301225886e-01	-1.952714556656024447e-01	-3.062709569480190699e-04	-3.128322801945941298e-03
1.921374475000000000e+08	-3.561970000000027562e-04	-3.324056000000020095e-03	9.792074675355589841e-01	-1.993462858520215764e-01	9.792074675355589841e-01	-1.993462858520215764e-01	-2.339484789034033604e-05	-3.035665435567155152e-03
1.961382275999999940e+08	-3.262630000000488195e-04	-3.287902999999980924e-03	9.783294536128535057e-01	-2.034468189903165525e-01	9.783294536128535057e-01	-2.034468189903165525e-01	-6.565467296820661110e-05	-3.110998017740879747e-03
2.001390078000000119e+08	-4.096489999999568428e-04	-3.214237999999980822e-03	9.774388513574560067e-01	-2.075691476670032676e-01	9.774388513574560067e-01	-2.075691476670032676e-01	7.599420923210236517e-05	-3.250639269002508248e-03
2.041397880000000000e+08	-4.324700000000181177e-04	-3.142503999999990850e-03	9.765989211420681437e-01	-2.116835938960207886e-01	9.765989211420681437e-01	-2.116835938960207886e-01	-3.147570520796992045e-05	-3.365553014053393292e-03
2.081405680999999940e+08	-5.027469999999700789e-04	-3.194252999999980247e-03	9.756927134553901038e-01	-2.157676720682671634e-01	9.756927134553901038e-01	-2.157676720682671634e-01	-7.553852477991070992e-05	-3.402489684210426892e-03
2.121413483000000119e+08	-6.463380000000242768e-04	-3.157008999999988842e-03	9.747648350785791393e-01	-2.198182794635348825e-01	9.747648350785791393e-01	-2.198182794635348825e-01	-1.251060647428352702e-04	-3.607361849406929676e-03
2.161421284000000060e+08	-7.928259999999687224e-04	-3.227052999999979743e-03	9.737969929774138445e-01	-2.239663552832004967e-01	9.737969929774138445e-01	-2.239663552832004967e-01	-8.931999107133071873e-05	-3.614361141039420990e-03
2.201429085999999940e+08	-8.782309999999513613e-04	-3.229411999999987071e-03	9.727622665574515715e-01	-2.280285041296768178e-01	9.727622665574515715e-01	-2.280285041296768178e-01	-9.411311754865597443e-05	-3.793171479341364474e-03
2.241436886999999881e+08	-9.248099999999981335e-04	-3.320649000000008844e-03	9.717615379796499253e-01	-2.320351572599261558e-01	9.717615379796499253e-01	-2.320351572599261558e-01	-6.453674754627750434e-05	-3.959608349848029764e-03
2.281444689000000060e+08	-9.796640000000467197e-04	-3.425973000000026580e-03	9.707771397405807745e-01	-2.360308427548699073e-01	9.707771397405807745e-01	-2.360308427548699073e-01	-2.284751151391129897e-04	-4.037047479940745337e-03
2.321452490000000000e+08	-1.074624000000024004e-03	-3.476597999999997846e-03	9.698021866355472920e-01	-2.401143723862028678e-01	9.698021866355472920e-01	-2.401143723862028678e-01	-2.501522000360198797e-04	-4.146649168441523398e-03
2.361460291999999881e+08	-1.138744000000024414e-03	-3.605426999999993085e-03	9.687889965135301207e-01	-2.441624295718570203e-01	9.687889965135301207e-01	-2.441624295718570203e-01	-2.335210557817741540e-04	-4.120041007796127960e-03
2.401468094000000060e+08	-1.219210000000026106e-03	-3.643002000000005423e-03	9.677385673153156009e-01	-2.481859004803723401e-01	9.677385673153156009e-01	-2.481859004803723401e-01	-1.846707004832103417e-04	-4.153030850097874302e-03
2.441475895000000000e+08	-1.317977999999997429e-03	-3.805834000000007933e-03	9.666311370899335342e-01	-2.522390990926068333e-01	9.666311370899335342e-01	-2.522390990926068333e-01	-1.175858319373873813e-04	-4.104369027740801049e-03
2.481483696999999881e+08	-1.338131000000020165e-03	-3.953874000000023869e-03	9.655628857304282553e-01	-2.562760260947704039e-01	9.655628857304282553e-01	-2.562760260947704039e-01	-5.223742036534529710e-05	-4.139249426418209997e-03
2.521491498000000119e+08	-1.356923000000010305e-03	-4.096193000000025730e-03	9.644539107051789406e-01	-2.603017895620854394e-01	9.644539107051789406e-01	-2.603017895620854394e-01	-8.218957595749077499e-05	-4.152244073444858082e-03
2.561499300000000000e+08	-1.391440000000021548e-03	-4.288521999999961309e-03	9.633679587628268814e-01	-2.643466464960757545e-01	9.633679587628268814e-01	-2.643466464960757545e-01	-5.507581410303034712e-05	-4.067640152873018035e-03
2.601507100999999940e+08	-1.369694999999949026e-03	-4.346235999999947808e-03	9.622728358533597648e-01	-2.683811482009237914e-01	9.622728358533597648e-01	-2.683811482009237914e-01	2.897549131278742349e-05	-4.109078471739950437e-03
2.641514903000000119e+08	-1.268509999999944959e-03	-4.382470000000027177e-03	9.611417467995936326e-01	-2.723652605763707824e-01	9.611417467995936326e-01	-2.723652605763707824e-01	-2.174467978892586154e-05	-4.312758845548460979e-03
2.681522705000000000e+08	-1.211666999999971416e-03	-4.419175999999969129e-03	9.599835462706926004e-01	-2.764143073705249698e-01	9.599835462706926004e-01	-2.764143073705249698e-01	-2.978956600992134149e-05	-4.405547769790730400e-03
2.721530506000000238e+08	-1.144905999999945578e-03	-4.455549000000003090e-03	9.588253535643457282e-01	-2.803971535828652661e-01	9.588253535643457282e-01	-2.803971535828652661e-01	-8.381760950661957393e-05	-4.517568786084754165e-03
2.761538308000000119e+08	-1.210854999999954728e-03	-4.320821999999947295e-03	9.576075146910107971e-01	-2.844184136747982539e-01	9.576075146910107971e-01	-2.844184136747982539e-01	3.237875441994145578e-05	-4.760578584412148567e-03
2.801546108999999762e+08	-1.252593999999995333e-03	-4.310837999999982649e-03	9.564401218556354278e-01	-2.884271180613057206e-01	9.564401218556354278e-01	-2.884271180613057206e-01	4.485022004727286238e-06	-4.788304223067191626e-03
2.841553911000000238e+08	-1.373465999999989862e-03	-4.188218000000021313e-03	9.552095632084250942e-01	-2.923743312670790684e-01	9.552095632084250942e-01	-2.923743312670790684e-01	-6.789858230125522115e-05	-4.930560786842019122e-03
2.881561711999999881e+08	-1.494761000000011976e-03	-4.176099000000045060e-03	9.539445945206699307e-01	-2.964085555676458927e-01	9.539445945206699307e-01	-2.964085555676458927e-01	-4.112305399886582308e-05	-5.007608528289906810e-03
2.921569513999999762e+08	-1.653523999999961368e-03	-4.216094999999975279e-03	9.526398459829853449e-01	-3.004307509647130559e-01	9.526398459829853449e-01	-3.004307509647130559e-01	-1.616520332298064695e-04	-4.942957567660475476e-03
2.961577315000000000e+08	-1.794253999999995564e-03	-4.153179999999979423e-03	9.512964279353570696e-01	-3.043727491210817537e-01	9.512964279353570696e-01	-3.043727491210817537e-01	-8.717215885176154977e-05	-5.146702502993909939e-03
3.001585116999999881e+08	-1.931154999999962207e-03	-4.292694999999957517e-03	9.500067627272638093e-01	-3.082847279313344901e-01	9.500067627272638093e-01	-3.082847279313344901e-01	-1.945022206761757265e-04	-5.245708445053531323e-03
3.041592918999999762e+08	-2.009467000000042091e-03	-4.495877999999952322e-03	9.486934934978537015e-01	-3.122491663111651716e-01	9.486934934978537015e-01	-3.122491663111651716e-01	-3.106238943848625006e-04	-5.317619307837916608e-03
3.081600720000000000e+08	-2.081856999999965197e-03	-4.601807000000013304e-03	9.474535479404365690e-01	-3.161875223535736135e-01	9.474535479404365690e-01	-3.161875223535736135e-01	-3.397290457853655021e-04	-5.364836219418241819e-03
3.121608521999999881e+08	-2.092334999999945211e-03	-4.743728000000002609e-03	9.460988754494367159e-01	-3.201015505745905543e-01	9.460988754494367159e-01	-3.201015505745905543e-01	-3.082778436116974559e-04	-5.440710525980109805e-03
3.161616323000000119e+08	-2.163256000000001854e-03	-4.877990999999970434e-03	9.447912678663795694e-01	-3.241000510477973773e-01	9.447912678663795694e-01	-3.241000510477973773e-01	-1.050450892014745570e-04	-5.496679172576893722e-03
3.201624125000000000e+08	-2.030300000000040406e-03	-4.885095999999977678e-03	9.434235836139801545e-01	-3.280460261476861872e-01	9.434235836139801545e-01	-3.280460261476861872e-01	-2.360500891181401863e-04	-5.567839677683249569e-03
3.241631926000000238e+08	-2.102543000000012697e-03	-4.937160999999967714e-03	9.420780358482950811e-01	-3.319616492976166788e-01	9.420780358482950811e-01	-3.319616492976166788e-01	-2.136466667574873912e-05	-5.609702552029875201e-03
3.281639728000000119e+08	-2.033594000000027002e-03	-4.960242000000003593e-03	9.406518963677379386e-01	-3.358868740074789083e-01	9.406518963677379386e-01	-3.358868740074789083e-01	-6.227409208720002809e-07	-5.629196782069116438e-03
3.321647530000000000e+08	-2.079432000000048120e-03	-4.917155000000006382e-03	9.391917836907085482e-01	-3.397986549122351541e-01	9.391917836907085482e-01	-3.397986549122351541e-01	1.627278531404329626e-05	-5.736456490077203665e-03
3.361655331000000238e+08	-2.128083999999974118e-03	-4.926098999999960724e-03	9.377241042134258908e-01	-3.437316099574934669e-01	9.377241042134258908e-01	-3.437316099574934669e-01	1.317576621510507112e-05	-5.756482185974779245e-03
3.401663133000000119e+08	-2.209052999999961287e-03	-4.944308999999980948e-03	9.362277602159042589e-01	-3.476493092744881164e-01	9.362277602159042589e-01	-3.476493092744881164e-01	-5.441016808022504717e-05	-5.897367148966109994e-03
