# Hz S RI R 50.00
1.000000000000000000e+05	-9.525679999999869807e-04	-2.274929999999999444e-04	9.999923541484758704e-01	6.455607245324786561e-05	9.999923541484758704e-01	6.455607245324786561e-05	1.077864488324268817e-03	2.406176912726530148e-04
4.100780155999999959e+06	-7.553660000000348481e-04	1.405769999999993691e-04	9.998112162683416848e-01	-4.425698507943598252e-03	9.998112162683416848e-01	-4.425698507943598252e-03	1.051422613963116882e-03	4.104847740220198948e-05
8.101560311999999918e+06	-8.359980000000042429e-04	1.430320000000012692e-04	9.997377822757871346e-01	-8.641034825597649835e-03	9.997377822757871346e-01	-8.641034825597649835e-03	1.240529768668935991e-03	7.419793799151897808e-05
1.210234047000000067e+07	-8.282320000000398252e-04	1.887170000000014392e-04	9.996635153797776008e-01	-1.286677784746837437e-02	9.996635153797776008e-01	-1.286677784746837437e-02	1.150958543457937392e-03	-6.251033274761422134e-05
1.610312061999999918e+07	-8.883819999999655829e-04	1.515019999999978051e-04	9.995253245175942380e-01	-1.707259337949842623e-02	9.995253245175942380e-01	-1.707259337949842623e-02	1.079481667200708934e-03	-2.184225779600174814e-04
2.010390078000000119e+07	-8.378679999999637555e-04	1.422179999999995115e-04	9.993621626050926965e-01	-2.118837192443055045e-02	9.993621626050926965e-01	-2.118837192443055045e-02	9.622467011779325995e-04	-3.699324739116508160e-04
2.410468094000000134e+07	-9.599510000000146485e-04	-1.243439999999701581e-05	9.992406017147451580e-01	-2.546336720509510820e-02	9.992406017147451580e-01	-2.546336720509510820e-02	9.096929178259773605e-04	-1.447127357218311880e-04
2.810546108999999985e+07	-8.525379999999582736e-04	-8.672440000000170013e-05	9.991058497231630753e-01	-2.964306901010188913e-02	9.991058497231630753e-01	-2.964306901010188913e-02	9.594350589613262915e-04	1.556588818873845764e-04
3.210624125000000000e+07	-7.720639999999614426e-04	-1.821500000000059725e-04	9.989469575414412494e-01	-3.381362713772954193e-02	9.989469575414412494e-01	-3.381362713772954193e-02	9.663671987014273677e-04	3.299518901618551285e-04
3.610702139999999851e+07	-7.250389999999828916e-04	-1.929019999999947999e-04	9.987462563538563876e-01	-3.796474857458609353e-02	9.987462563538563876e-01	-3.796474857458609353e-02	1.154600932784204462e-03	2.259680188034721821e-04
4.010780156000000238e+07	-6.178180000000477179e-04	-6.770370000000470979e-05	9.985267070065928507e-01	-4.215683223252494199e-02	9.985267070065928507e-01	-4.215683223252494199e-02	1.287784485635742491e-03	1.534555357332103307e-04
4.410858171999999881e+07	-6.344649999999729673e-04	-5.606169999999857591e-05	9.982758141537392271e-01	-4.634357484624957585e-02	9.982758141537392271e-01	-4.634357484624957585e-02	1.620205313955256753e-03	1.643890346522103286e-04
4.810936186999999732e+07	-5.367440000000334166e-04	2.038880000000686810e-05	9.980306579799012034e-01	-5.052719821389714538e-02	9.980306579799012034e-01	-5.052719821389714538e-02	1.481055991402984665e-03	5.771407003109691207e-06
5.211014203000000119e+07	-6.553609999999656602e-04	6.135250000000041929e-05	9.978145666017000925e-01	-5.468287224607980973e-02	9.978145666017000925e-01	-5.468287224607980973e-02	1.582635952786966716e-03	-1.428872466115511291e-04
5.611092217999999970e+07	-7.670490000000198486e-04	1.479959999999975171e-04	9.975589597147000998e-01	-5.885719348671503842e-02	9.975589597147000998e-01	-5.885719348671503842e-02	1.551668273293707731e-03	-2.962389173750898386e-04
6.011170234000000358e+07	-8.577629999999554326e-04	6.096380000000789501e-05	9.973121513531106874e-01	-6.301214395474184771e-02	9.973121513531106874e-01	-6.301214395474184771e-02	1.432137262616396938e-03	-2.922440232608271185e-04
6.411248250000000000e+07	-8.847199999999495572e-04	-1.391830000002755759e-06	9.970308903250708621e-01	-6.718021318372474626e-02	9.970308903250708621e-01	-6.718021318372474626e-02	1.327685462633271859e-03	-3.658254955460318500e-04
6.811326265000000596e+07	-9.545130000000456860e-04	-1.177310000000098000e-04	9.967104420749636207e-01	-7.132231886742299021e-02	9.967104420749636207e-01	-7.132231886742299021e-02	1.259615492679436915e-03	-3.082451583480683957e-04
7.211404281000000238e+07	-9.419760000000112436e-04	-2.331939999999920756e-04	9.964323507679280212e-01	-7.553799096185326301e-02	9.964323507679280212e-01	-7.553799096185326301e-02	1.284742498714593019e-03	-1.532612941076136922e-04
7.611482295999999344e+07	-9.140939999999766422e-04	-3.693790000000030105e-04	9.960682977262313997e-01	-7.970152175392604399e-02	9.960682977262313997e-01	-7.970152175392604399e-02	1.303844428649555054e-03	-6.400256547600636711e-05
8.011560312000000477e+07	-7.416150000000285621e-04	-3.757650000000001809e-04	9.956663624763532061e-01	-8.385483811009009081e-02	9.956663624763532061e-01	-8.385483811009009081e-02	1.270698515758930799e-03	-2.526783835172990230e-05
8.411638328000000119e+07	-6.731960000000421045e-04	-3.118510000000019309e-04	9.952912866397893854e-01	-8.802265692499650074e-02	9.952912866397893854e-01	-8.802265692499650074e-02	1.414476235408045936e-03	-1.002598123712710051e-04
8.811716343000000715e+07	-5.813249999999656800e-04	-3.216040000000031638e-04	9.948792074904565519e-01	-9.216484788189652222e-02	9.948792074904565519e-01	-9.216484788189652222e-02	1.602586180098129146e-03	-6.666908611078819959e-05
9.211794359000000358e+07	-5.709550000000394084e-04	-2.066129999999943845e-04	9.944556844993410749e-01	-9.638521532450006202e-02	9.944556844993410749e-01	-9.638521532450006202e-02	1.658810927160332812e-03	-1.384917637760152247e-04
9.611872373999999464e+07	-6.120450000000057181e-04	-1.466880000000059248e-04	9.940317014272298524e-01	-1.005152683304546962e-01	9.940317014272298524e-01	-1.005152683304546962e-01	1.851395039186442540e-03	-2.551996264551715447e-04
1.001195039000000060e+08	-6.990730000000497987e-04	-3.896240000000883441e-05	9.935445593679546050e-01	-1.046622973465381606e-01	9.935445593679546050e-01	-1.046622973465381606e-01	1.784738303073170199e-03	-4.310528931673566632e-04
1.041202840999999940e+08	-8.579549999999660451e-04	-9.265459999999170471e-05	9.930976381369898132e-01	-1.087954077987035861e-01	9.930976381369898132e-01	-1.087954077987035861e-01	1.882490137400868145e-03	-4.928718213083018362e-04
1.081210642000000030e+08	-9.329030000000406667e-04	-8.690250000001342734e-05	9.926486595764276721e-01	-1.129946259330227992e-01	9.926486595764276721e-01	-1.129946259330227992e-01	1.729189041358743587e-03	-5.206039549686854173e-04
1.121218444000000060e+08	-9.917249999999988574e-04	-2.431559999999943766e-04	9.921654248062317105e-01	-1.171079031184534547e-01	9.921654248062317105e-01	-1.171079031184534547e-01	1.581174634058890105e-03	-4.609694492483309568e-04
1.161226245000000000e+08	-1.023243000000007225e-03	-4.053400000000040304e-04	9.916399455245271666e-01	-1.212382442984656777e-01	9.916399455245271666e-01	-1.212382442984656777e-01	1.537950312739037092e-03	-3.956961019893655892e-04
1.201234047000000030e+08	-9.929340000000008715e-04	-4.741699999999959836e-04	9.910889522818758790e-01	-1.253673735647607979e-01	9.910889522818758790e-01	-1.253673735647607979e-01	1.562601412244505510e-03	-3.614671250336474713e-04
1.241241847999999970e+08	-8.853669999999702611e-04	-5.809529999999951677e-04	9.905364365219221368e-01	-1.295185037951957219e-01	9.905364365219221368e-01	-1.295185037951957219e-01	1.537453404539768911e-03	-3.369502156183425481e-04
1.281249650000000000e+08	-8.235810000000180937e-04	-5.934389999999731876e-04	9.899544997649323275e-01	-1.336415663048110547e-01	9.899544997649323275e-01	-1.336415663048110547e-01	1.661176966010610581e-03	-3.197278195179645136e-04
1.321257450999999940e+08	-7.582219999999752994e-04	-5.950029999999828512e-04	9.893583475078338019e-01	-1.377904585422780048e-01	9.893583475078338019e-01	-1.377904585422780048e-01	1.770193054585116575e-03	-2.984442649224333601e-04
1.361265253000000119e+08	-6.394330000000225667e-04	-5.300939999999808609e-04	9.887478734125936253e-01	-1.419195862517053375e-01	9.887478734125936253e-01	-1.419195862517053375e-01	1.890345267359289094e-03	-4.030493033735521331e-04
1.401273055000000000e+08	-5.999799999999444466e-04	-4.250519999999813336e-04	9.880761170552961881e-01	-1.460783026813844698e-01	9.880761170552961881e-01	-1.460783026813844698e-01	1.971803327365349509e-03	-5.290018015644557328e-04
1.441280855999999940e+08	-7.037930000000083234e-04	-3.555769999999953794e-04	9.874570610450151831e-01	-1.501999667564950791e-01	9.874570610450151831e-01	-1.501999667564950791e-01	2.086135835204326952e-03	-6.859710300918313254e-04
1.481288658000000119e+08	-7.349869999999645350e-04	-2.683359999999803628e-04	9.868342228690920592e-01	-1.543215090296123360e-01	9.868342228690920592e-01	-1.543215090296123360e-01	1.940273280589181835e-03	-7.562989202840105386e-04
1.521296459000000060e+08	-9.004609999999635406e-04	-3.163709999999819722e-04	9.861382749961510319e-01	-1.584372831356959388e-01	9.861382749961510319e-01	-1.584372831356959388e-01	1.891100445975513623e-03	-8.145446642466461305e-04
1.561304260999999940e+08	-9.850829999999972768e-04	-3.331149999999949429e-04	9.854664951432142717e-01	-1.625565901640659561e-01	9.854664951432142717e-01	-1.625565901640659561e-01	1.798226966272308252e-03	-8.582854263767722945e-04
1.601312061999999881e+08	-1.095340000000000202e-03	-5.127870000000145367e-04	9.847848717334505286e-01	-1.666404126854766632e-01	9.847848717334505286e-01	-1.666404126854766632e-01	1.810154162163588997e-03	-7.864649157141209148e-04
1.641319864000000060e+08	-1.039247000000021121e-03	-6.546720000000227913e-04	9.840289702441823438e-01	-1.707994415825723755e-01	9.840289702441823438e-01	-1.707994415825723755e-01	1.597801648689414723e-03	-6.074867074768536485e-04
1.681327665999999940e+08	-9.616820000000194605e-04	-6.958109999999906314e-04	9.833007550945862540e-01	-1.748864329495554149e-01	9.833007550945862540e-01	-1.748864329495554149e-01	1.623960214535323130e-03	-6.840645396129503130e-04
1.721335466999999881e+08	-9.302679999999563520e-04	-8.075169999999798343e-04	9.825530167260572156e-01	-1.789847440669185274e-01	9.825530167260572156e-01	-1.789847440669185274e-01	1.767617812750814756e-03	-6.030851704024988097e-04
1.761343269000000060e+08	-7.453250000000191059e-04	-7.279150000000234044e-04	9.817699967508322079e-01	-1.830950493262658019e-01	9.817699967508322079e-01	-1.830950493262658019e-01	1.862168981314854446e-03	-6.927641261413043346e-04
1.801351070000000000e+08	-6.502950000000229380e-04	-7.438599999999850887e-04	9.809528497704084193e-01	-1.871795541912945893e-01	9.809528497704084193e-01	-1.871795541912945893e-01	2.006859763037670535e-03	-6.318046675936391399e-04
1.841358871999999881e+08	-6.693039999999821250e-04	-5.796809999999985585e-04	9.801546909477389935e-01	-1.912902235551632579e-01	9.801546909477389935e-01	-1.912902235551632579e-01	2.194406064800667310e-03	-7.720846679913105160e-04
1.881366673000000119e+08	-7.288330000000395933e-04	-5.412900000000275824e-04	9.793069589934179087e-01	-1.953759413568309788e-01	9.793069589934179087e-01	-1.953759413568309788e-01	2.228417578622252006e-03	-9.108278401216347072e-04
1.921374475000000000e+08	-8.103480000000162775e-04	-3.270100000000166710e-04	9.784483175817688672e-01	-1.994578964311445324e-01	9.784483175817688672e-01	-1.994578964311445324e-01	2.241991989350826126e-03	-1.057090442617345666e-03
1.961382275999999940e+08	-9.247430000000054270e-04	-3.681110000000045127e-04	9.776188003619419309e-01	-2.035619788886163517e-01	9.776188003619419309e-01	-2.035619788886163517e-01	2.194274066585859620e-03	-1.053192910631808778e-03
2.001390078000000119e+08	-1.033661000000019470e-03	-3.700890000000178759e-04	9.767504176898378354e-01	-2.076341217750825585e-01	9.767504176898378354e-01	-2.076341217750825585e-01	2.014873992284945976e-03	-1.136313164692503031e-03
2.041397880000000000e+08	-1.222947000000029760e-03	-4.958480000000209387e-04	9.758500201200900337e-01	-2.117192428007872163e-01	9.758500201200900337e-01	-2.117192428007872163e-01	1.941377459778129404e-03	-1.013631949055829665e-03
2.081405680999999940e+08	-1.251464999999951644e-03	-6.579019999999882132e-04	9.749558471287832484e-01	-2.158072993703751830e-01	9.749558471287832484e-01	-2.158072993703751830e-01	1.853342757052602692e-03	-9.816873078180954164e-04
2.121413483000000119e+08	-1.260485999999949808e-03	-7.523099999999780570e-04	9.740340740609551018e-01	-2.198565367502164358e-01	9.740340740609551018e-01	-2.198565367502164358e-01	1.807627124781032747e-03	-9.901064669368742945e-04
2.161421284000000060e+08	-1.209274000000037930e-03	-8.329300000000094961e-04	9.731212197597670643e-01	-2.238849809804871194e-01	9.731212197597670643e-01	-2.238849809804871194e-01	1.846320134024490543e-03	-9.644030840659500179e-04
2.201429085999999940e+08	-1.101771999999945351e-03	-8.700850000000202086e-04	9.721292866227766449e-01	-2.279598326524477359e-01	9.721292866227766449e-01	-2.279598326524477359e-01	1.995691180232451751e-03	-9.586133237935348227e-04
2.241436886999999881e+08	-9.660400000000013421e-04	-9.616219999999953139e-04	9.711578937982323634e-01	-2.319918217401632787e-01	9.711578937982323634e-01	-2.319918217401632787e-01	2.054777225016997041e-03	-9.413279010887604060e-04
2.281444689000000060e+08	-8.954199999999801207e-04	-8.202529999999930155e-04	9.702123994887229541e-01	-2.360264833717459210e-01	9.702123994887229541e-01	-2.360264833717459210e-01	2.156675276572794005e-03	-1.093057148639603373e-03
2.321452490000000000e+08	-9.003410000000262696e-04	-7.426209999999992990e-04	9.691708671505937511e-01	-2.401126893714821409e-01	9.691708671505937511e-01	-2.401126893714821409e-01	2.294497522081195059e-03	-1.122467378874734793e-03
2.361460291999999881e+08	-9.379689999999827384e-04	-6.333590000000000053e-04	9.681262667475151185e-01	-2.441489378211472439e-01	9.681262667475151185e-01	-2.441489378211472439e-01	2.363580870599028307e-03	-1.188823947069816544e-03
2.401468094000000060e+08	-1.004829999999956591e-03	-5.542720000000227361e-04	9.671115908334484423e-01	-2.481865160366353296e-01	9.671115908334484423e-01	-2.481865160366353296e-01	2.255052574259543141e-03	-1.247096322004955307e-03
2.441475895000000000e+08	-1.231920000000052973e-03	-5.327889999999779747e-04	9.659975489723070519e-01	-2.522394056751688374e-01	9.659975489723070519e-01	-2.522394056751688374e-01	2.205686347619577325e-03	-1.230786926644124486e-03
2.481483696999999881e+08	-1.271821000000006308e-03	-6.005949999999811266e-04	9.648803128590454081e-01	-2.562506764256090031e-01	9.648803128590454081e-01	-2.562506764256090031e-01	2.030341108121699704e-03	-1.263740658700427712e-03
2.521491498000000119e+08	-1.418668000000012025e-03	-7.082609999999878170e-04	9.638090359074943381e-01	-2.603409530333704591e-01	9.638090359074943381e-01	-2.603409530333704591e-01	1.909524401646487454e-03	-1.088730207698136460e-03
2.561499300000000000e+08	-1.417039999999980537e-03	-8.966729999999591919e-04	9.627471943436960444e-01	-2.643211293425112851e-01	9.627471943436960444e-01	-2.643211293425112851e-01	1.882529377155409958e-03	-1.001442863939301783e-03
2.601507100999999940e+08	-1.282464999999954891e-03	-1.027812000000016606e-03	9.615992617544437682e-01	-2.683278406710888908e-01	9.615992617544437682e-01	-2.683278406710888908e-01	1.784315156706511342e-03	-9.837481559872903597e-04
2.641514903000000119e+08	-1.255212999999977047e-03	-1.103438999999984066e-03	9.604551606991112989e-01	-2.723484626699502198e-01	9.604551606991112989e-01	-2.723484626699502198e-01	1.895549873797567567e-03	-9.672728899786202372e-04
2.681522705000000000e+08	-1.139275999999966871e-03	-1.131738999999964534e-03	9.593093525744315064e-01	-2.763564547507488811e-01	9.593093525744315064e-01	-2.763564547507488811e-01	1.996067875817080558e-03	-9.988325027753710943e-04
2.721530506000000238e+08	-9.736660000000392327e-04	-9.699090000000465395e-04	9.580961545659674172e-01	-2.803267279518572574e-01	9.580961545659674172e-01	-2.803267279518572574e-01	2.161262799503307474e-03	-1.214769471357104048e-03
2.761538308000000119e+08	-9.814769999999532930e-04	-8.947379999999505173e-04	9.568866782133355064e-01	-2.843822039301185933e-01	9.568866782133355064e-01	-2.843822039301185933e-01	2.481589764782810188e-03	-1.288563421584489055e-03
2.801546108999999762e+08	-1.004227000000024184e-03	-7.378909999999900930e-04	9.557165702633110271e-01	-2.883271718744895851e-01	9.557165702633110271e-01	-2.883271718744895851e-01	2.508510998291621063e-03	-1.446376019649294430e-03
2.841553911000000238e+08	-1.022490999999958738e-03	-5.592930000000162494e-04	9.544862345755397159e-01	-2.923172582690283794e-01	9.544862345755397159e-01	-2.923172582690283794e-01	2.458048314078215262e-03	-1.572563818820014309e-03
2.881561711999999881e+08	-1.209589000000010905e-03	-3.943379999999940821e-04	9.532491720537911162e-01	-2.962801175323934721e-01	9.532491720537911162e-01	-2.962801175323934721e-01	2.453978064470876443e-03	-1.557534979098369179e-03
2.921569513999999762e+08	-1.416069999999991285e-03	-4.069279999999730890e-04	9.519789582974365061e-01	-3.002357918407032589e-01	9.519789582974365061e-01	-3.002357918407032589e-01	2.284777241427031133e-03	-1.463354981961482656e-03
2.961577315000000000e+08	-1.622471999999985925e-03	-5.090749999999699682e-04	9.507206497942720658e-01	-3.042222960706861268e-01	9.507206497942720658e-01	-3.042222960706861268e-01	2.198982286733263802e-03	-1.365804252482043712e-03
3.001585116999999881e+08	-1.711075999999978059e-03	-5.932690000000073738e-04	9.494328600625534520e-01	-3.081711546817320624e-01	9.494328600625534520e-01	-3.081711546817320624e-01	1.992372115868589096e-03	-1.340726241781868815e-03
3.041592918999999762e+08	-1.816892000000014384e-03	-8.422569999999574009e-04	9.481472154311255673e-01	-3.120828274621864074e-01	9.481472154311255673e-01	-3.120828274621864074e-01	2.034044229936535133e-03	-1.157075651397632479e-03
3.081600720000000000e+08	-1.715507000000005000e-03	-1.051343999999954093e-03	9.468182538101458379e-01	-3.160421963724532324e-01	9.468182538101458379e-01	-3.160421963724532324e-01	1.943001499264589930e-03	-1.012194597451441733e-03
3.121608521999999881e+08	-1.586842000000032726e-03	-1.103399000000004904e-03	9.454921607236214109e-01	-3.199603738099113248e-01	9.454921607236214109e-01	-3.199603738099113248e-01	2.050542346889246744e-03	-1.133363355807877164e-03
3.161616323000000119e+08	-1.391621000000009762e-03	-1.188305999999971895e-03	9.441162879665694341e-01	-3.239306040412709420e-01	9.441162879665694341e-01	-3.239306040412709420e-01	2.157421025221524166e-03	-1.241308088060079839e-03
3.201624125000000000e+08	-1.333722000000036722e-03	-1.015600999999977539e-03	9.427623608658994847e-01	-3.278487936377929013e-01	9.427623608658994847e-01	-3.278487936377929013e-01	2.423406909820115425e-03	-1.538347807302357147e-03
3.241631926000000238e+08	-1.238391000000005565e-03	-8.975460000000268224e-04	9.413890667296523906e-01	-3.318050419414094732e-01	9.413890667296523906e-01	-3.318050419414094732e-01	2.575127496225684647e-03	-1.782601545208379505e-03
3.281639728000000119e+08	-1.253847999999946339e-03	-8.360349999999572290e-04	9.399944117509180241e-01	-3.357270763736583397e-01	9.399944117509180241e-01	-3.357270763736583397e-01	2.669691358491459686e-03	-1.679847375606893182e-03
3.321647530000000000e+08	-1.303261000000000220e-03	-6.076889999999668390e-04	9.385497495755545927e-01	-3.395947531253177276e-01	9.385497495755545927e-01	-3.395947531253177276e-01	2.746844051604439493e-03	-1.900666511685693890e-03
3.361655331000000238e+08	-1.436997999999967352e-03	-5.106040000000247256e-04	9.370847762307437101e-01	-3.435233009088212719e-01	9.370847762307437101e-01	-3.435233009088212719e-01	2.667852490607003878e-03	-1.876145180529158966e-03
3.401663133000000119e+08	-1.625840999999961234e-03	-4.947549999999583011e-04	9.356409778147649625e-01	-3.474534490834397804e-01	9.356409778147649625e-01	-3.474534490834397804e-01	2.483558501907772581e-03	-1.813873011709584825e-03
