# Hz S RI R 50.00
1.000000000000000000e+05	-2.662355797400373092e-04	1.119644991900000872e-04	1.000396706954253201e+00	1.037774000864742511e-03	1.000396706954253201e+00	1.037774000864742511e-03	7.769031311391047414e-05	2.208861143835902721e-04
4.100780155999999959e+06	6.719616425177044050e-06	1.073525707599997942e-04	9.996585637715031947e-01	-6.382471577990257890e-03	9.996585637715031947e-01	-6.382471577990257890e-03	1.449094142950939193e-05	1.309921940613431623e-04
8.101560312099999748e+06	-3.431252746932623911e-06	9.133056252999890859e-05	9.997425368672889778e-01	-1.269605465844104997e-02	9.997425368672889778e-01	-1.269605465844104997e-02	2.517082734279758004e-04	3.969656219317901848e-04
1.210234046800000034e+07	-8.163407026917591982e-06	2.494225035400005606e-04	9.996058738082308492e-01	-1.900964665387140651e-02	9.996058738082308492e-01	-1.900964665387140651e-02	4.480921318869454618e-04	2.663852102928308428e-04
1.610312062399999984e+07	3.258137067096988915e-05	2.247721868200018873e-04	9.994696691551876455e-01	-2.527361084526421123e-02	9.994696691551876455e-01	-2.527361084526421123e-02	4.999824166398757555e-04	5.132901796420157947e-04
2.010390078000000119e+07	8.749442102096150180e-05	2.101822673400004530e-04	9.993280505490519383e-01	-3.155671497473403614e-02	9.993280505490519383e-01	-3.155671497473403614e-02	5.493749233519059369e-04	7.716120916593159585e-04
2.410468093600000069e+07	1.330525066101085046e-05	5.000789038699937628e-04	9.991147067296239914e-01	-3.780192844013750136e-02	9.991147067296239914e-01	-3.780192844013750136e-02	6.396650631620903402e-04	6.016438514272601972e-04
2.810546109200000018e+07	2.033584692300303195e-04	4.952167910600018290e-04	9.986778416138908376e-01	-4.413185083954834081e-02	9.986778416138908376e-01	-4.413185083954834081e-02	8.291579270721177123e-04	6.422789072349583068e-04
3.210624124799999967e+07	1.845058934100140017e-04	6.172690321900042854e-04	9.983229279253519328e-01	-5.027846101003063950e-02	9.983229279253519328e-01	-5.027846101003063950e-02	7.503585464866990070e-04	3.886235740223646304e-04
3.610702140399999917e+07	1.924614445200090174e-04	7.042232030899930884e-04	9.978448044875346534e-01	-5.646457452668503935e-02	9.978448044875346534e-01	-5.646457452668503935e-02	7.844784992610044118e-04	3.046659106529948772e-04
4.010780156000000238e+07	2.031441998899818913e-04	8.490500512199905536e-04	9.974461983455784608e-01	-6.262559191201851061e-02	9.974461983455784608e-01	-6.262559191201851061e-02	7.264636217668114316e-04	2.759564335674887132e-04
4.410858171599999815e+07	1.456333655499576470e-04	9.124095208999927209e-04	9.969697332288924851e-01	-6.888720249113129690e-02	9.969697332288924851e-01	-6.888720249113129690e-02	8.379749338633586155e-04	2.536705488993366842e-04
4.810936187200000137e+07	1.126449328200385125e-04	9.867542894899938855e-04	9.964154476168703978e-01	-7.509643496683063302e-02	9.964154476168703978e-01	-7.509643496683063302e-02	8.233702990130064387e-04	2.981052196980710483e-04
5.211014202799999714e+07	1.120377948500282965e-04	1.079372384699989196e-03	9.959191965696231330e-01	-8.136867256708454899e-02	9.959191965696231330e-01	-8.136867256708454899e-02	8.593215971322223793e-04	2.076061199669751466e-04
5.611092218400000036e+07	5.012584577901424681e-05	1.056601050099997829e-03	9.953707870606023356e-01	-8.755403867566603771e-02	9.953707870606023356e-01	-8.755403867566603771e-02	8.639731337861321055e-04	4.781611733868952867e-04
6.011170234000000358e+07	1.168256442799496834e-04	1.087713722800004446e-03	9.948024369112906662e-01	-9.374520910072788038e-02	9.948024369112906662e-01	-9.374520910072788038e-02	8.805194522248745896e-04	4.982053000815694476e-04
6.411248249599999934e+07	7.374220691502863557e-05	1.097208654199988143e-03	9.941690794397178843e-01	-9.995876372599492299e-02	9.941690794397178843e-01	-9.995876372599492299e-02	1.066362326023733353e-03	6.897772665282415677e-04
6.811326265299999714e+07	9.672509131497530888e-05	1.181168517499997517e-03	9.935415874083659560e-01	-1.061750852890306629e-01	9.935415874083659560e-01	-1.061750852890306629e-01	1.158651996728511267e-03	7.653633218796811362e-04
7.211404280900000036e+07	2.294998324600119270e-04	1.324628416000006581e-03	9.928065122618158211e-01	-1.123992129205758222e-01	9.928065122618158211e-01	-1.123992129205758222e-01	1.232270423375964215e-03	8.932625068968358395e-04
7.611482296500000358e+07	3.228781361499510894e-04	1.294475939499994954e-03	9.920238231970816001e-01	-1.185344776395946959e-01	9.920238231970816001e-01	-1.185344776395946959e-01	1.270880600948360792e-03	9.153915732437892337e-04
8.011560312100000679e+07	3.879153081599584496e-04	1.381371252200003230e-03	9.912418497908018766e-01	-1.247034622833265438e-01	9.912418497908018766e-01	-1.247034622833265438e-01	1.305705550117689136e-03	8.394614874536821328e-04
8.411638327699999511e+07	4.065796055100487968e-04	1.464745496799979563e-03	9.903647916400415419e-01	-1.308256218670034166e-01	9.903647916400415419e-01	-1.308256218670034166e-01	1.413929432252554897e-03	7.618742771646738656e-04
8.811716343299999833e+07	4.251719896399830390e-04	1.612614124899991452e-03	9.895201499120869215e-01	-1.370442423894641659e-01	9.895201499120869215e-01	-1.370442423894641659e-01	1.534030889748935799e-03	5.747494381208849987e-04
9.211794358900000155e+07	4.280214328900022736e-04	1.669338944900011779e-03	9.885614494765688764e-01	-1.432260624696751750e-01	9.885614494765688764e-01	-1.432260624696751750e-01	1.520208022287129063e-03	4.468323601981941139e-04
9.611872374500000477e+07	4.265321362899590022e-04	1.776662192700007026e-03	9.876704590481697466e-01	-1.493909633472240706e-01	9.876704590481697466e-01	-1.493909633472240706e-01	1.496160498783466420e-03	3.885580264229497138e-04
1.001195039000000060e+08	4.017232509400114893e-04	1.804261484600000248e-03	9.866858978442142325e-01	-1.555044662872499817e-01	9.866858978442142325e-01	-1.555044662872499817e-01	1.631473598136890966e-03	2.995172367534414083e-04
1.041202840600000024e+08	4.411404190399757005e-04	1.767781124699996376e-03	9.856149601956082362e-01	-1.616421210674137687e-01	9.856149601956082362e-01	-1.616421210674137687e-01	1.598352006040017377e-03	2.728484591107264469e-04
1.081210642099999934e+08	4.159514462199749400e-04	1.822867661500027431e-03	9.845857899695724669e-01	-1.678292091109697126e-01	9.845857899695724669e-01	-1.678292091109697126e-01	1.585826532391085677e-03	1.966846982356399093e-04
1.121218443700000048e+08	4.372170262699761559e-04	1.797223359700006462e-03	9.835020151004577604e-01	-1.739785674697033324e-01	9.835020151004577604e-01	-1.739785674697033324e-01	1.630676899340534943e-03	2.953785700807202096e-04
1.161226245199999958e+08	5.471898196199864728e-04	1.789447504900010255e-03	9.824226869653495120e-01	-1.800156727062866557e-01	9.824226869653495120e-01	-1.800156727062866557e-01	1.603960831989812092e-03	4.063798642716803800e-04
1.201234046800000072e+08	5.842151382700055962e-04	1.841244623200011254e-03	9.812529610506277589e-01	-1.861480147412141184e-01	9.812529610506277589e-01	-1.861480147412141184e-01	1.597213537131171677e-03	4.733939505414044976e-04
1.241241848400000036e+08	7.465553686200057052e-04	1.882397939700020117e-03	9.800369906840319389e-01	-1.922843785916684423e-01	9.800369906840319389e-01	-1.922843785916684423e-01	1.702039907372118223e-03	5.954565217148877210e-04
1.281249649899999946e+08	8.568082175099966946e-04	1.930459540199991331e-03	9.788100635141306904e-01	-1.983531682774064830e-01	9.788100635141306904e-01	-1.983531682774064830e-01	1.639006925897441977e-03	6.720741997358950764e-04
1.321257451500000060e+08	1.008628159799962671e-03	2.044867567900010563e-03	9.774918082951912224e-01	-2.044476265256579828e-01	9.774918082951912224e-01	-2.044476265256579828e-01	1.667773496310545611e-03	7.658355072978565836e-04
1.361265253100000024e+08	1.051963411400014259e-03	2.154434182700004641e-03	9.761429870426762134e-01	-2.105680532738338773e-01	9.761429870426762134e-01	-2.105680532738338773e-01	1.851020208585689181e-03	9.761946122393788759e-04
1.401273054600000083e+08	1.074682189100006468e-03	2.381943073199999095e-03	9.747666146874571780e-01	-2.166860957520779785e-01	9.747666146874571780e-01	-2.166860957520779785e-01	2.007899961371228774e-03	8.889646690649265172e-04
1.441280856200000048e+08	1.131989219799955926e-03	2.558972175299989438e-03	9.733503699435118728e-01	-2.227868114835343527e-01	9.733503699435118728e-01	-2.227868114835343527e-01	2.174110412310777465e-03	9.879403698622049677e-04
1.481288657700000107e+08	1.212241584199969403e-03	2.741967161200009606e-03	9.718818925808830889e-01	-2.288200218360526839e-01	9.718818925808830889e-01	-2.288200218360526839e-01	2.241945322029181929e-03	9.751347571936144548e-04
1.521296459300000072e+08	1.201794094100039345e-03	2.791064479799987286e-03	9.704259637857820531e-01	-2.348150944741128898e-01	9.704259637857820531e-01	-2.348150944741128898e-01	2.411694267150687673e-03	8.897078374957509157e-04
1.561304260900000036e+08	1.134194312400027549e-03	2.810775383099983760e-03	9.689392809840997600e-01	-2.407926669763375271e-01	9.689392809840997600e-01	-2.407926669763375271e-01	2.544795283808441028e-03	8.435341091965937749e-04
1.601312062400000095e+08	1.101184777200003850e-03	2.875091057400025463e-03	9.673881535399938558e-01	-2.468126834200778108e-01	9.673881535399938558e-01	-2.468126834200778108e-01	2.554184500605387580e-03	7.579834882098601765e-04
1.641319864000000060e+08	1.083996922199959457e-03	2.905928916499989079e-03	9.658704441398294760e-01	-2.528720662208960857e-01	9.658704441398294760e-01	-2.528720662208960857e-01	2.505558072413412250e-03	6.287705421787766593e-04
1.681327665500000119e+08	1.035426141899997710e-03	2.926747855099998130e-03	9.642796308341582412e-01	-2.588800665839411930e-01	9.642796308341582412e-01	-2.588800665839411930e-01	2.588494541987650284e-03	4.130540807537378366e-04
1.721335467100000083e+08	9.821205831700434603e-04	2.884532931299976788e-03	9.626274656053981360e-01	-2.648350407593517697e-01	9.626274656053981360e-01	-2.648350407593517697e-01	2.649720752691134620e-03	3.097573828753386613e-04
1.761343268700000048e+08	1.143291996099971009e-03	2.880622461200021966e-03	9.609556165310924047e-01	-2.707761471194924940e-01	9.609556165310924047e-01	-2.707761471194924940e-01	2.540507897875541286e-03	2.074736783295545381e-04
1.801351070200000107e+08	1.211690774200024912e-03	2.832638634500006525e-03	9.591888491046213217e-01	-2.767709059897540125e-01	9.591888491046213217e-01	-2.767709059897540125e-01	2.583683717492037818e-03	1.649324715018707626e-04
1.841358871800000072e+08	1.188805097599998639e-03	2.810579726300055370e-03	9.574181197483130346e-01	-2.826985116603299986e-01	9.574181197483130346e-01	-2.826985116603299986e-01	2.645043949694507197e-03	1.348235826456778592e-04
1.881366673300000131e+08	1.265568349499979640e-03	2.691316309500035864e-03	9.555256758442151055e-01	-2.886224341950840988e-01	9.555256758442151055e-01	-2.886224341950840988e-01	2.766411471088802820e-03	3.415529100533763653e-04
1.921374474900000095e+08	1.442835703600043196e-03	2.746508551500048689e-03	9.536977581240807522e-01	-2.945653989161949315e-01	9.536977581240807522e-01	-2.945653989161949315e-01	2.835993777140595994e-03	4.240915169900023787e-04
1.961382276500000060e+08	1.590372928899963078e-03	2.736833033599950227e-03	9.517891850028750156e-01	-3.005268962220420392e-01	9.517891850028750156e-01	-3.005268962220420392e-01	2.856160857923509093e-03	5.194452219106809095e-04
2.001390078000000119e+08	1.795557561400041181e-03	2.805768768299965465e-03	9.498864789584550161e-01	-3.064613549384149205e-01	9.498864789584550161e-01	-3.064613549384149205e-01	2.955013432124782395e-03	6.509913581568911502e-04
2.041397879600000083e+08	1.965401478099981780e-03	2.953647836600015175e-03	9.479389795897568138e-01	-3.123852942574987246e-01	9.479389795897568138e-01	-3.123852942574987246e-01	3.006776863790144080e-03	6.431162336119433751e-04
2.081405681100000143e+08	2.069989378600034513e-03	3.029392103599981567e-03	9.459811511399081052e-01	-3.182324283268313514e-01	9.459811511399081052e-01	-3.182324283268313514e-01	3.131031185352278062e-03	7.340399419276685909e-04
2.121413482700000107e+08	2.189930798999983452e-03	3.320689381200003787e-03	9.439851277272413022e-01	-3.241810314795552372e-01	9.439851277272413022e-01	-3.241810314795552372e-01	3.250125072041269193e-03	4.939791458083177527e-04
2.161421284300000072e+08	2.104628803199948273e-03	3.539093903000001262e-03	9.419273393382084913e-01	-3.300890687907719334e-01	9.419273393382084913e-01	-3.300890687907719334e-01	3.303310264383810257e-03	4.094751599024309963e-04
2.201429085800000131e+08	2.106004950800044895e-03	3.759394571799967288e-03	9.397735217545114539e-01	-3.359958581676940059e-01	9.397735217545114539e-01	-3.359958581676940059e-01	3.412800249595351453e-03	2.656344738362177108e-04
2.241436887400000095e+08	2.081253549000017678e-03	3.785774493999971568e-03	9.375731449994925137e-01	-3.417799594745593583e-01	9.375731449994925137e-01	-3.417799594745593583e-01	3.375972751798917478e-03	1.795232656364804859e-04
2.281444688899999857e+08	2.092343861100020696e-03	3.847083509999960071e-03	9.354374651263189788e-01	-3.475129816424122886e-01	9.354374651263189788e-01	-3.475129816424122886e-01	3.289096844611528320e-03	1.420758160320431240e-04
2.321452490500000119e+08	2.021839411800008257e-03	3.882166476600001481e-03	9.332275275766439560e-01	-3.532689927641583516e-01	9.332275275766439560e-01	-3.532689927641583516e-01	3.348797986571301361e-03	5.657020182835690615e-05
2.361460292100000083e+08	1.919474511399954508e-03	3.758501512999945070e-03	9.309860870018412671e-01	-3.590476922065823917e-01	9.309860870018412671e-01	-3.590476922065823917e-01	3.466272051977037534e-03	-1.762027838271259042e-05
2.401468093600000143e+08	1.891740645100004493e-03	3.698395683899957653e-03	9.287735833872252655e-01	-3.648333483558224843e-01	9.287735833872252655e-01	-3.648333483558224843e-01	3.412544459563164427e-03	-1.168096183379152119e-04
2.441475895200000107e+08	2.024495550699945134e-03	3.508513831300019703e-03	9.264815128736910710e-01	-3.706301301541035098e-01	9.264815128736910710e-01	-3.706301301541035098e-01	3.279397542171525425e-03	1.069176808138618765e-04
2.481483696699999869e+08	2.112350111699968103e-03	3.455320221899981902e-03	9.241656754826216291e-01	-3.764354823828843788e-01	9.241656754826216291e-01	-3.764354823828843788e-01	3.513915537676296982e-03	2.362543130399912591e-04
2.521491498300000131e+08	2.253235309199963510e-03	3.296132211000002855e-03	9.217470948674073572e-01	-3.822290450791546168e-01	9.217470948674073572e-01	-3.822290450791546168e-01	3.743412156550544878e-03	3.475558219490268962e-04
2.561499299900000095e+08	2.522810317200030461e-03	3.301809030400005163e-03	9.192806908074515615e-01	-3.879902918579257731e-01	9.192806908074515615e-01	-3.879902918579257731e-01	3.771478222141734244e-03	4.409917200931361136e-05
2.601507101399999857e+08	2.669201952099963925e-03	3.396534248299998716e-03	9.168162201883440776e-01	-3.936770780136893966e-01	9.168162201883440776e-01	-3.936770780136893966e-01	3.939365318445620795e-03	-8.110290321496158722e-05
2.641514903000000119e+08	2.908305640900055167e-03	3.347387863499973193e-03	9.143399645710061918e-01	-3.993711026437037903e-01	9.143399645710061918e-01	-3.993711026437037903e-01	3.943203405209217034e-03	-1.968707413341653101e-04
2.681522704499999881e+08	3.092679754699956263e-03	3.574113494700049010e-03	9.117690937816159691e-01	-4.050502910109580190e-01	9.117690937816159691e-01	-4.050502910109580190e-01	4.019870809702605352e-03	-3.755459358396877768e-04
2.721530506100000143e+08	3.197176955599956728e-03	3.733020794900010486e-03	9.092295987472311936e-01	-4.107251939235117555e-01	9.092295987472311936e-01	-4.107251939235117555e-01	3.953452102916097180e-03	-5.403113359776856930e-04
2.761538307699999809e+08	3.282458993700054350e-03	3.884771194800018968e-03	9.066599048343716438e-01	-4.163774347865827341e-01	9.066599048343716438e-01	-4.163774347865827341e-01	3.954280850489625895e-03	-4.315752819034949193e-04
2.801546109200000167e+08	3.195693431700008958e-03	4.034955911199955558e-03	9.040059563161217948e-01	-4.220325180135685583e-01	9.040059563161217948e-01	-4.220325180135685583e-01	4.018151881980788070e-03	-3.667587139181091062e-04
2.841553910799999833e+08	3.259154998699998352e-03	4.138767860400016652e-03	9.013202210353661314e-01	-4.276614024725236551e-01	9.013202210353661314e-01	-4.276614024725236551e-01	3.990368075165682052e-03	-2.628999989334277615e-04
2.881561712300000191e+08	3.110819226699978145e-03	4.291373009200016853e-03	8.985889223814261806e-01	-4.332696598099656238e-01	8.985889223814261806e-01	-4.332696598099656238e-01	4.068355407143710301e-03	-1.010382398195981170e-04
2.921569513899999857e+08	3.108383797300051654e-03	4.302108152499983795e-03	8.958573182335469731e-01	-4.389203292601756012e-01	8.958573182335469731e-01	-4.389203292601756012e-01	4.059791546453484987e-03	1.170407665542388172e-04
2.961577315500000119e+08	3.087703514800032700e-03	4.308356796399959165e-03	8.930393862873255983e-01	-4.444916049801660995e-01	8.930393862873255983e-01	-4.444916049801660995e-01	4.152520243206407960e-03	1.093798853761681570e-04
3.001585116999999881e+08	3.108954074899972220e-03	4.268825726399971821e-03	8.902318304836241980e-01	-4.500392268326919298e-01	8.902318304836241980e-01	-4.500392268326919298e-01	4.399831458906497753e-03	2.361418646556106074e-04
3.041592918600000143e+08	3.196416296599946961e-03	4.254941241700005428e-03	8.873726896621082494e-01	-4.555139551150420019e-01	8.873726896621082494e-01	-4.555139551150420019e-01	4.539096058257668931e-03	1.730206920210895956e-04
3.081600720099999905e+08	3.316289484900036832e-03	4.111574915499960348e-03	8.844683346279073044e-01	-4.610097109904426893e-01	8.844683346279073044e-01	-4.610097109904426893e-01	4.702407572905346889e-03	9.987022234727704201e-05
3.121608521700000167e+08	3.365619394799956431e-03	4.071675094399984651e-03	8.815886327446870174e-01	-4.664716794463176774e-01	8.815886327446870174e-01	-4.664716794463176774e-01	4.806703964234428257e-03	-1.388374991560087889e-04
3.161616323299999833e+08	3.551477024600013365e-03	4.012922434800003657e-03	8.786468668852470687e-01	-4.719140329796173150e-01	8.786468668852470687e-01	-4.719140329796173150e-01	4.995327151162450539e-03	-3.550775883495380092e-04
3.201624124800000191e+08	3.596860916200040215e-03	4.107928694899953825e-03	8.756789411812889723e-01	-4.773890151272708327e-01	8.756789411812889723e-01	-4.773890151272708327e-01	5.207192882223031852e-03	-5.692688512839061583e-04
3.241631926399999857e+08	3.701358199100002189e-03	4.102470814300041013e-03	8.726572411410894459e-01	-4.828254623685627189e-01	8.726572411410894459e-01	-4.828254623685627189e-01	5.260110311758004961e-03	-7.992107458204525568e-04
3.281639727900000215e+08	3.736774929499975251e-03	4.126723330100000829e-03	8.695450991113207184e-01	-4.882076947099900366e-01	8.695450991113207184e-01	-4.882076947099900366e-01	5.373705733763435750e-03	-8.563617402709308539e-04
3.321647529499999881e+08	3.800777236599994779e-03	4.169155829000014378e-03	8.665089508379598682e-01	-4.935817331498748017e-01	8.665089508379598682e-01	-4.935817331498748017e-01	5.202788114125006178e-03	-1.046452692538868282e-03
3.361655331100000143e+08	3.931329745699985168e-03	4.130764017600042394e-03	8.634079832049674774e-01	-4.989356587169542223e-01	8.634079832049674774e-01	-4.989356587169542223e-01	5.033471749920883503e-03	-9.459276614777610732e-04
3.401663132599999905e+08	3.868145574600023728e-03	4.161079747299956111e-03	8.602995335008924993e-01	-5.043555592502180218e-01	8.602995335008924993e-01	-5.043555592502180218e-01	5.070702663834976420e-03	-7.932608583516892638e-04
3.441670934200000167e+08	3.944377315599989497e-03	4.096082282399993169e-03	8.571671462334269354e-01	-5.097844406562163089e-01	8.571671462334269354e-01	-5.097844406562163089e-01	5.035694509407564155e-03	-6.717902207107671712e-04
