#  HZ   S   RI   R     50.00 
! Rohde & Schwarz Vector Network Analyzer 
! Rohde-Schwarz,ZNB20-2Port,1311601062101763,2.70
! Created: UTC 3/9/2022, 3:50:49 PM
! freq[Hz]                re:S11                  im:S11                  re:S21                  im:S21                  re:S12                  im:S12                  re:S22                  im:S22
 1.000000000000000E5    -2.662355797417815E-4    1.119644991865852E-4   -1.597377341894414E-4   -1.522705039882258E-4   -4.037995105207169E-5   -1.372250906978752E-4   -2.675781642084051E-4    1.259744893738285E-4
 4.100780156031206E6     6.719616425211230E-6    1.073525707564946E-4    1.363726979461470E-5   -4.482918952273167E-6   -3.831061390608354E-8   -6.758396340290985E-6    1.469946827034920E-4    1.343151417941562E-4
 8.101560312062413E6    -3.431252746861746E-6    9.133056253009038E-5   -1.041691390792636E-6   -1.849022166770396E-5    1.876271181301525E-6   -3.546128534386043E-6    1.318022462716474E-4    2.126357854248020E-4
 1.210234046809362E7    -8.163407026921258E-6    2.494225035402988E-4   -5.717428225181977E-6   -1.024969089269652E-5   -8.443632351378609E-6    1.165461557769060E-5    1.155765099619374E-4    2.665907220391904E-4
 1.610312062412483E7     3.258137067139541E-5    2.247721868225478E-4   -3.565859920086864E-6    5.011534753743943E-6   -7.386528539558699E-6   -2.690300110081152E-7    1.374051941561239E-4    3.382636615506132E-4
 2.010390078015603E7     8.749442102058831E-5    2.101822673374045E-4    1.409125384420264E-5   -1.066102532814351E-5    9.292311875503476E-7    1.555235087406113E-5    1.353215663034031E-4    4.733961994458817E-4
 2.410468093618724E7     1.330525066100687E-5    5.000789038735222E-4    9.995520231681352E-6   -2.135307156275843E-6   -7.839604114299805E-6    1.180069056758346E-5    1.708502726880035E-4    4.217625886683087E-4
 2.810546109221844E7     2.033584692340502E-4    4.952167910619878E-4    4.509878886314714E-6    1.002852449130993E-6    9.473686480165779E-7   -1.298547747494155E-6    2.839374025736485E-4    3.755573474734115E-4
 3.210624124824965E7     1.845058934132382E-4    6.172690321884043E-4   -9.879404147189320E-6   -7.541889224119508E-6    7.854033144156359E-6    8.638842588032913E-7    2.399134929773382E-4    4.958435237204981E-4
 3.610702140428086E7     1.924614445172261E-4    7.042232030862319E-4    1.896004721579556E-6   -1.755160257845824E-6    1.519857328152965E-6   -1.659936599893278E-6    3.196144516409611E-4    4.424059894559468E-4
 4.010780156031206E7     2.031441998912375E-4    8.490500512218135E-4    1.934908731622218E-6    1.742928249617902E-5    4.507724630153249E-6    4.702501088021859E-7    3.968252440722857E-4    5.739214932259883E-4
 4.410858171634327E7     1.456333655525265E-4    9.124095208975472E-4   -6.814026952674976E-6   -8.288742306776742E-6    4.388516652277625E-6   -3.320841790768136E-6    4.544357893338179E-4    6.972320723521023E-4
 4.810936187237448E7     1.126449328159079E-4    9.867542894931784E-4   -3.148368142191861E-6   -4.183171290891165E-6   -1.639060400808557E-6   -1.059647786296410E-5    4.899733808990807E-4    7.940083496907136E-4
 5.211014202840568E7     1.120377948546148E-4    1.079372384713467E-3    9.376027160769092E-6   -1.584942492056129E-5   -6.130082234014845E-6    1.814989814863259E-6    4.451399673576563E-4    8.697717041341426E-4
 5.611092218443689E7     5.012584577883816E-5    1.056601050133032E-3    9.315050519338339E-6   -7.716015343206129E-6    4.576124351226841E-6   -4.316835709672702E-6    3.626312257782786E-4    9.276493934008041E-4
 6.011170234046809E7     1.168256442822821E-4    1.087713722774595E-3    7.850239910531202E-7   -3.783378511586704E-6   -1.041355501876876E-5   -8.091520691066077E-6    3.889574277680930E-4    9.499960150540259E-4
 6.411248249649930E7     7.374220691465263E-5    1.097208654232457E-3    7.339163199888343E-6   -1.106421814186030E-5    6.367870813321847E-6   -7.698643454307951E-7    3.493620549763894E-4    1.017497352726218E-3
 6.811326265253051E7     9.672509131524648E-5    1.181168517532699E-3    2.033226707789663E-6   -5.890651342729598E-6    8.800065603985412E-6    4.294340122068091E-6    3.507444366137226E-4    9.675599912915846E-4
 7.211404280856171E7     2.294998324624633E-4    1.324628415950191E-3   -4.138458710472561E-6   -9.941691629023484E-6   -1.314499539136203E-5   -5.703089906399509E-6    4.170176764806127E-4    9.991765081156724E-4
 7.611482296459292E7     3.228781361528651E-4    1.294475939494578E-3    2.590598282746896E-6    1.135222728963914E-5   -5.873033420232030E-6    1.654281346672815E-5    4.480478549878093E-4    9.352996028287768E-4
 8.011560312062413E7     3.879153081645963E-4    1.381371252196246E-3    1.437557073756354E-6    3.764120562122395E-6    3.098193400086248E-6    1.362251009926362E-5    4.758218896309431E-4    1.023410052243064E-3
 8.411638327665533E7     4.065796055139540E-4    1.464745496752758E-3   -7.949184298777191E-6    7.441083914344727E-7    7.716443181250003E-6    6.983224818119726E-6    5.104868479203969E-4    1.088637925333236E-3
 8.811716343268654E7     4.251719896403549E-4    1.612614124928779E-3    3.273836188994478E-7    1.454379236624234E-5    2.611919485786068E-6    5.283569276415979E-7    5.233391691493127E-4    1.075032533184490E-3
 9.211794358871774E7     4.280214328881248E-4    1.669338944866579E-3    5.272757086593699E-6    1.137005941522121E-5    1.466580013668939E-6    4.382965221152273E-7    5.121751464801894E-4    1.173622307743316E-3
 9.611872374474895E7     4.265321362852890E-4    1.776662192659363E-3    4.258815746283094E-6    4.361347951631189E-6   -3.719483223478594E-6    5.528420190294575E-6    4.590135179736363E-4    1.168554574951542E-3
 1.001195039007802E8     4.017232509356550E-4    1.804261484627377E-3    5.886105931100803E-6    8.314250167841946E-7    1.158907947389320E-6    3.099057452297719E-6    4.705128292674382E-4    1.203689935506805E-3
 1.041202840568114E8     4.411404190366707E-4    1.767781124683503E-3    7.427278478521283E-6    2.603513384385484E-6   -6.977088917416479E-6    4.608553913854286E-6    4.638133118960129E-4    1.211717689116985E-3
 1.081210642128426E8     4.159514462196443E-4    1.822867661486582E-3   -3.498567797862703E-6    1.414239489986599E-6    9.381294223605309E-6    1.407927416452206E-6    4.947780855311774E-4    1.150213163295889E-3
 1.121218443688738E8     4.372170262664719E-4    1.797223359655476E-3   -1.885292619000623E-6   -2.835321183505519E-6    6.061303889445454E-6    1.083884235022121E-6    5.109535714995144E-4    1.166170431288665E-3
 1.161226245249050E8     5.471898196170824E-4    1.789447504906030E-3   -1.273004001405866E-6   -2.643181306257250E-6   -1.113342173351106E-6   -9.738629895398364E-6    6.111614169316737E-4    1.133739953754544E-3
 1.201234046809362E8     5.842151382678183E-4    1.841244623235488E-3    5.671558907489778E-6   -5.468279145988651E-6    5.335317995902899E-6    2.863284774137235E-6    7.917794624139541E-4    1.115399525910006E-3
 1.241241848369674E8     7.465553686173031E-4    1.882397939726829E-3    1.109929897024948E-5    2.186333873857312E-6   -5.101102593985637E-6    3.608075850782591E-7    7.681883720807984E-4    1.191728445699958E-3
 1.281249649929986E8     8.568082175068505E-4    1.930459540199416E-3    1.076432336796288E-6    3.768910066475155E-6    5.549586631696638E-6    8.384918131954891E-6    9.139073335259144E-4    1.216172428041765E-3
 1.321257451490298E8     1.008628159815302E-3    2.044867567945438E-3   -7.571786266983570E-7   -3.664225580556199E-7    6.549736176216789E-6   -2.365601618157678E-6    9.463201624815787E-4    1.344588193364743E-3
 1.361265253050610E8     1.051963411429513E-3    2.154434182656287E-3   -7.140170340228906E-6    3.720587258549564E-6   -1.970570767663467E-6   -3.630014385685813E-6    1.034812069569427E-3    1.439145973091422E-3
 1.401273054610922E8     1.074682189097534E-3    2.381943073207053E-3    1.059066044937836E-5    3.179149922741359E-6    2.331404999213264E-6   -7.880173019272212E-7    1.058549492061887E-3    1.578336227743471E-3
 1.441280856171234E8     1.131989219788420E-3    2.558972175283867E-3    6.004643496355487E-6   -2.523462506960763E-6   -1.106176135372417E-5    4.752319199579643E-6    1.030001774662824E-3    1.722683999584927E-3
 1.481288657731546E8     1.212241584211876E-3    2.741967161168331E-3    2.295275289889518E-6    5.910585345758246E-6   -3.821451208566971E-6   -5.314071550203993E-7    9.694043379012772E-4    1.764000855447047E-3
 1.521296459291858E8     1.201794094095278E-3    2.791064479804424E-3   -1.680806478769338E-6    2.200573081603138E-6    5.919733810766621E-6    7.966404913037835E-6    8.734645812989131E-4    1.729982583445917E-3
 1.561304260852171E8     1.134194312353874E-3    2.810775383064700E-3    5.099521354710671E-6    1.029672571033988E-5    5.619614187185829E-7    8.629224732901083E-6    8.916640101517470E-4    1.798328328162661E-3
 1.601312062412483E8     1.101184777208836E-3    2.875091057392014E-3    9.211729322600677E-6   -1.040576172409319E-6    8.659223137934850E-6   -8.971327719428998E-6    7.817035740599652E-4    1.759987339404173E-3
 1.641319863972794E8     1.083996922233825E-3    2.905928916489572E-3    5.494069921228699E-6   -4.951583186892386E-6    5.243698562972126E-6   -1.243456499763583E-5    8.441442661679657E-4    1.673732783565844E-3
 1.681327665533107E8     1.035426141852262E-3    2.926747855139549E-3   -4.444552855736164E-6    6.915194070615543E-7   -5.588506521718078E-6   -7.147790367679362E-6    8.251546078973887E-4    1.611471228251281E-3
 1.721335467093419E8     9.821205831668735E-4    2.884532931250165E-3    1.216775839553827E-6    2.352619663210063E-6    5.041537263050158E-6    8.966259966873057E-7    9.210314432618597E-4    1.681875686170499E-3
 1.761343268653731E8     1.143291996085214E-3    2.880622461155957E-3   -1.457726018108154E-5    9.234494970317634E-6   -3.142659350413524E-6    1.293456339483249E-5    1.072017289840951E-3    1.628634862925861E-3
 1.801351070214043E8     1.211690774238708E-3    2.832638634456940E-3    5.241548863025480E-6    4.655959193472404E-6   -1.145879053081779E-5   -2.256890856996228E-6    1.083181294198454E-3    1.569085967123257E-3
 1.841358871774355E8     1.188805097622500E-3    2.810579726316174E-3    7.267864575834764E-6   -3.407539031532621E-6    2.091270245515683E-6   -2.503548817349453E-6    1.209694846959516E-3    1.630091080406949E-3
 1.881366673334667E8     1.265568349489486E-3    2.691316309497732E-3    4.592803403479864E-6    1.290321570642622E-5    1.009763353739285E-5   -2.790754619004013E-6    1.316877751249627E-3    1.646144714217419E-3
 1.921374474894979E8     1.442835703648457E-3    2.746508551540606E-3    4.221370880126943E-6    1.049750034588577E-5    6.615441529114191E-7    2.054459110938122E-5    1.368506675913709E-3    1.673030329537804E-3
 1.961382276455291E8     1.590372928934901E-3    2.736833033557708E-3    5.082693141127551E-6   -5.689862017578334E-6    6.221979470907059E-6    1.354686133715450E-5    1.381447465834795E-3    1.737971610711102E-3
 2.001390078015603E8     1.795557561382353E-3    2.805768768275989E-3    1.138527212359204E-5    2.742208002153785E-6   -7.753852448467831E-6    1.223794956480787E-5    1.453166451405244E-3    1.783005745120314E-3
 2.041397879575915E8     1.965401478117675E-3    2.953647836617983E-3    7.056551653472839E-6    9.821741826830995E-6    9.375084441050107E-6    1.034535090918895E-5    1.545492374190564E-3    1.850221270186838E-3
 2.081405681136227E8     2.069989378564708E-3    3.029392103556161E-3    1.372608534724952E-5    3.410707739724989E-6    7.681175493951772E-7    9.050301153124939E-6    1.573170466228886E-3    1.932908919061695E-3
 2.121413482696539E8     2.189930798981312E-3    3.320689381249170E-3    2.195406293002759E-6   -7.186444087764811E-7    9.050907587006859E-6   -9.767657089833493E-6    1.706852495975990E-3    1.985110873187714E-3
 2.161421284256851E8     2.104628803175046E-3    3.539093903002575E-3   -2.153141622771898E-6   -4.918240694035605E-6   -7.829767449271951E-6    1.004701574675345E-5    1.710745032423114E-3    2.017349588835548E-3
 2.201429085817164E8     2.106004950781519E-3    3.759394571847514E-3    2.346731615393290E-6   -1.792362281505412E-6    1.720122261344735E-5   -1.917790211171652E-6    1.687887228460193E-3    2.193355111174592E-3
 2.241436887377476E8     2.081253548961394E-3    3.785774494024168E-3    1.299371939764522E-6   -6.398936336019529E-6    1.934222916092594E-5    1.338458307914816E-6    1.844539678091201E-3    2.230779715319437E-3
 2.281444688937787E8     2.092343861145091E-3    3.847083510041725E-3   -6.892159582973305E-6   -1.768880738799963E-5   -3.084188633602782E-6    2.505136014348768E-6    1.754612298215056E-3    2.389006440685512E-3
 2.321452490498100E8     2.021839411785467E-3    3.882166476571910E-3   -2.818997767186812E-7   -2.307805073499928E-5   -4.953460196476746E-6   -4.340724442503121E-6    1.677956282109209E-3    2.491271079220320E-3
 2.361460292058412E8     1.919474511356038E-3    3.758501512960245E-3   -6.660425222527534E-6   -3.018671347052746E-6    1.225111461948417E-5    1.767478120212620E-6    1.637167600807591E-3    2.511115759924255E-3
 2.401468093618724E8     1.891740645077045E-3    3.698395683890863E-3    2.252722350213182E-6   -2.884145173102091E-8   -1.934951820858443E-5   -1.761500857302470E-5    1.537457901609584E-3    2.484441945289938E-3
 2.441475895179036E8     2.024495550741033E-3    3.508513831343438E-3   -1.976106133934505E-5   -4.506630051257740E-6   -1.356809481329386E-5    1.085787007676063E-5    1.481351632207842E-3    2.475613157713231E-3
 2.481483696739348E8     2.112350111650100E-3    3.455320221945469E-3   -2.988940581348312E-5   -4.067779679520907E-6   -1.363836968579729E-5   -3.258156153241183E-6    1.397890445937972E-3    2.352710130571392E-3
 2.521491498299660E8     2.253235309174129E-3    3.296132211027060E-3   -1.145857337671920E-5    2.276812057852575E-5   -2.810015114960532E-5    1.343441860005545E-5    1.402309590904399E-3    2.204623506965806E-3
 2.561499299859972E8     2.522810317208861E-3    3.301809030395663E-3   -2.268531609652486E-5    1.349086510337222E-5   -1.093097052368454E-5    2.080262999351034E-5    1.501884311451758E-3    2.139701639323774E-3
 2.601507101420284E8     2.669201952111401E-3    3.396534248261020E-3   -9.482327663148049E-6    3.127317306571129E-5   -1.975325093097404E-5    1.365664784048135E-5    1.649969167708593E-3    2.039474449840394E-3
 2.641514902980596E8     2.908305640878673E-3    3.347387863529343E-3   -1.978514599196166E-5    2.840438107326138E-5    1.008136410923581E-6    4.634405499646507E-5    1.691348645900162E-3    1.997055104188452E-3
 2.681522704540908E8     3.092679754728959E-3    3.574113494733401E-3    1.564026770420121E-5    2.140866978635242E-5   -7.763063380600327E-6    4.157242506982795E-5    1.874137437375831E-3    2.086572088385330E-3
 2.721530506101220E8     3.197176955560229E-3    3.733020794913692E-3    1.550199527632198E-5    2.802797211833455E-5    1.061809759978707E-5    1.148273394874389E-5    2.027953772397530E-3    2.100272604367820E-3
 2.761538307661532E8     3.282458993689939E-3    3.884771194776159E-3   -8.204424801785238E-6    1.610786314241646E-5    3.701412481115151E-8    2.666943803892741E-5    2.056488801922544E-3    2.211719786679574E-3
 2.801546109221845E8     3.195693431696018E-3    4.034955911208516E-3    1.288488319649698E-7    2.312310442817977E-5    1.414187052642292E-5    1.663945524739256E-5    2.150559121636775E-3    2.221506472944745E-3
 2.841553910782157E8     3.259154998694548E-3    4.138767860366772E-3    8.873176957244484E-6    1.396489750980399E-5    1.674360389943153E-5    9.163601127110707E-6    2.148401268154749E-3    2.435742281519715E-3
 2.881561712342469E8     3.110819226724806E-3    4.291373009249245E-3   -2.640740190764378E-6    1.367437986994765E-5   -3.364839048232425E-8    3.572665611689015E-5    2.071336292774235E-3    2.467883336863893E-3
 2.921569513902780E8     3.108383797330726E-3    4.302108152520272E-3    1.606408266058784E-6    3.185161374238025E-6    5.483627197864827E-6   -2.442173619884078E-6    2.030062976999847E-3    2.567215021493402E-3
 2.961577315463092E8     3.087703514812774E-3    4.308356796379058E-3    1.254680546011437E-5    1.020408258781500E-5    7.743412281795492E-6    1.218762425746164E-5    2.009420126674523E-3    2.590323426382770E-3
 3.001585117023405E8     3.108954074881719E-3    4.268825726354637E-3    1.081653876426376E-6    1.472603120426418E-5   -6.795369419089252E-6    1.321601757975997E-6    1.873057316190130E-3    2.627997959498541E-3
 3.041592918583717E8     3.196416296591054E-3    4.254941241744953E-3   -8.555798439573918E-6    9.497195451530224E-6   -1.366360832700808E-5    8.011964384390526E-6    1.895236218316545E-3    2.473682747212674E-3
 3.081600720144029E8     3.316289484869491E-3    4.111574915515371E-3   -7.163415859810265E-6   -3.701638081226389E-6   -2.740349807707335E-6    1.060521576596980E-5    1.959249987492836E-3    2.467179176191772E-3
 3.121608521704341E8     3.365619394785688E-3    4.071675094352598E-3    1.709806411666324E-5    1.511886299987286E-5   -5.548817772645513E-6    3.765239802222382E-5    1.955786221180632E-3    2.429637581032096E-3
 3.161616323264653E8     3.551477024573760E-3    4.012922434837684E-3    5.921102327078749E-6    2.583052059680102E-5    9.558404314994507E-6    1.350485021954686E-5    1.987185897426222E-3    2.245319267551562E-3
 3.201624124824965E8     3.596860916221360E-3    4.107928694922352E-3   -4.445114169760220E-6    7.848738690879178E-6    1.189058044926515E-6    3.185484796030065E-5    2.016243088677702E-3    2.282336846080581E-3
 3.241631926385277E8     3.701358199115662E-3    4.102470814346992E-3    2.976073630488192E-5    1.979464614776910E-5    2.092616495491447E-5    1.922533945035502E-5    1.994195342270466E-3    2.305468723861058E-3
 3.281639727945589E8     3.736774929477052E-3    4.126723330056332E-3    1.739103590503889E-5    1.277436706597719E-5    1.251317929756450E-5    3.152812700769450E-5    2.058569699912824E-3    2.333356080068158E-3
 3.321647529505901E8     3.800777236580342E-3    4.169155829035537E-3    2.020822978726177E-5    9.631084781289477E-6    1.002479426858131E-5    5.789742529167006E-6    2.160449144933412E-3    2.326008157986383E-3
 3.361655331066213E8     3.931329745650063E-3    4.130764017584533E-3    1.047140965931352E-5    8.297762918360640E-6    6.662980679062697E-6    1.640248260951528E-5    2.171676869210551E-3    2.292769135469196E-3
 3.401663132626525E8     3.868145574645626E-3    4.161079747274567E-3    2.626271295313344E-5    1.624352266001097E-5    1.621302634287947E-5    9.626195990544692E-6    2.278497557612883E-3    2.235929586577934E-3
 3.441670934186838E8     3.944377315569836E-3    4.096082282371951E-3    1.136835146586874E-5   -5.148098994603471E-6    1.534517028698578E-5    1.531036191655787E-5    2.306404711696136E-3    2.205953619706859E-3
 3.481678735747150E8     4.021260184525990E-3    4.100178825126454E-3    2.199218497209337E-5   -3.473910220888949E-6    1.504740848118464E-5    1.435211239708881E-5    2.317875685202339E-3    2.185680788168968E-3
 3.521686537307462E8     4.194302388257818E-3    3.962525504527912E-3    1.819900676443106E-5    1.996077084572951E-6    1.302506036682172E-5    1.097392563819959E-5    2.454663233196945E-3    2.164965663650432E-3
 3.561694338867773E8     4.329011893753501E-3    3.989308657300399E-3    1.045340279062667E-5    4.125068281868012E-6    3.407650058502940E-5   -1.758064407588544E-5    2.517960006192884E-3    2.258209822340331E-3
 3.601702140428085E8     4.501853845547612E-3    4.008174849049667E-3    1.982736793059920E-5   -1.583800333550423E-5   -9.739312710320745E-7   -1.166153144710957E-5    2.706784357347137E-3    2.294640092863943E-3
