#  HZ   S   RI   R     50.00 
! Rohde & Schwarz Vector Network Analyzer 
! Rohde-Schwarz,ZNB20-2Port,1311601062101763,2.70
! Created: UTC 3/9/2022, 3:46:58 PM
! freq[Hz]                re:S11                  im:S11                  re:S21                  im:S21                  re:S12                  im:S12                  re:S22                  im:S22
 1.000000000000000E5     1.000603509131764       2.409592617599682E-3    1.086060614761648E-4    1.554032258596193E-4    4.109788116377837E-5   -4.027780157888151E-5    1.000741485269442       1.268871675291639E-3
 4.100780156031206E6     9.992993628965357E-1   -1.252251565412356E-2   -1.953969078018466E-6    1.359600778910120E-5   -2.552456227122267E-6   -9.387986362965328E-6    9.994507211613866E-1   -1.295063462100319E-2
 8.101560312062413E6     9.995820450780341E-1   -2.490373161562907E-2   -7.074711943367127E-6   -2.887557393544107E-6   -7.548841516844156E-7    1.061631132535946E-5    9.992750259374803E-1   -2.531359960580623E-2
 1.210234046809362E7     9.993002124832842E-1   -3.750560316264540E-2   -2.658703606258942E-7   -2.107033747320898E-6    9.084525030435457E-6    2.259476238434387E-5    9.988477938941311E-1   -3.797936900892063E-2
 1.610312062412483E7     9.988585222462073E-1   -4.980797069785314E-2    2.950550923506118E-6    1.722000981754111E-6   -6.040179612203011E-6    7.153435902651091E-6    9.983450565508033E-1   -5.038338763451997E-2
 2.010390078015603E7     9.983447367141474E-1   -6.212481657404948E-2   -1.074317153174360E-5    1.554495358867492E-5   -9.273519799517664E-6    1.300374824143645E-5    9.973727247066050E-1   -6.300809988574235E-2
 2.410468093618724E7     9.974976866905320E-1   -7.448468117735728E-2    1.272041173011426E-5   -4.434402514202547E-6   -1.646137814982631E-5    2.256998807395608E-6    9.965992279125663E-1   -7.529869758177489E-2
 2.810546109221844E7     9.964955036819372E-1   -8.708450628645907E-2   -2.144833447529861E-5    3.761636175375825E-6    6.613293188356654E-6   -1.792857359298191E-7    9.952698825597720E-1   -8.798294913353191E-2
 3.210624124824965E7     9.950906792035121E-1   -9.945946121884117E-2    8.045125871668838E-6   -4.592195011781385E-7    1.914075187899087E-5    3.868587654067218E-6    9.940032333799137E-1   -1.005283584394391E-1
 3.610702140428086E7     9.935119711010376E-1   -1.117671422345836E-1    1.476179671646305E-6    4.685008150325409E-6   -7.205249859948400E-7   -1.656630938750701E-6    9.933756727590890E-1   -1.120723382282391E-1
 4.010780156031206E7     9.919349802201432E-1   -1.238992173880208E-1   -1.416902732426957E-5    1.084865625340299E-6   -1.660911364484883E-5    8.845083781028409E-6    9.919401631137547E-1   -1.244759847833983E-1
 4.410858171634327E7     9.902132964169789E-1   -1.363083388045214E-1   -7.766521345756642E-6    4.167721920198951E-6    1.711107744209052E-6    1.069629264777818E-5    9.904658390595317E-1   -1.369443174540553E-1
 4.810936187237448E7     9.881750175243409E-1   -1.484962747688225E-1    1.426173270755816E-6    1.091991048914834E-5    6.815239775165210E-6    1.425674319670713E-5    9.885064556097555E-1   -1.492128066487879E-1
 5.211014202840568E7     9.862272469050307E-1   -1.609283668315404E-1    2.321925984654573E-6    1.843842334309774E-6    3.934315495533763E-6    2.322623070990698E-5    9.865953694594455E-1   -1.615436910146401E-1
 5.611092218443689E7     9.840807851131791E-1   -1.729206501380525E-1   -8.307749363138072E-7    5.957038598202402E-6    2.440810327758542E-7    1.542425542835722E-5    9.843127352483592E-1   -1.738609365420025E-1
 6.011170234046809E7     9.819178059703668E-1   -1.851030173053406E-1    2.522640576260729E-6    1.686925569218962E-5   -1.788699049321960E-6    2.822050607565556E-6    9.817886698704269E-1   -1.860615458761452E-1
 6.411248249649930E7     9.796354882903942E-1   -1.971903825700021E-1   -8.943626460068481E-6    1.050952747617023E-5    9.176451924464808E-6    1.464598415402625E-5    9.792291860700360E-1   -1.982054765122646E-1
 6.811326265253051E7     9.772417229008109E-1   -2.092935530567756E-1    1.745532695669547E-6    1.001925275581391E-6    2.238138588894217E-6    2.192363937625198E-5    9.766729698124184E-1   -2.104355048087441E-1
 7.211404280856171E7     9.746602768024004E-1   -2.212605753890008E-1   -4.911234089710842E-7    1.516671161711966E-5    5.245044178688785E-7    8.109549541319495E-6    9.738720771475619E-1   -2.226978492706451E-1
 7.611482296459292E7     9.718331339203037E-1   -2.332923950401739E-1   -1.933453971576080E-6    9.606953254455255E-6   -2.659342374845763E-6    1.570494765752734E-5    9.711423617352720E-1   -2.346216337497475E-1
 8.011560312062413E7     9.688690395511010E-1   -2.453503663983691E-1    1.850133623738587E-5    1.127502880990589E-5    9.693887288439213E-6    1.243614595349660E-5    9.681230979489658E-1   -2.468344292307521E-1
 8.411638327665533E7     9.656756221683907E-1   -2.572958896116187E-1    1.021448943502240E-5    2.727019877564765E-5    2.400093442356559E-6    2.181908210217295E-5    9.651392233236015E-1   -2.591337149873932E-1
 8.811716343268654E7     9.624257157649608E-1   -2.694663987333548E-1    8.552797158532122E-6    5.924960840020926E-7    9.561796556426021E-6    5.484947953473406E-6    9.620603593061996E-1   -2.712247896022864E-1
 9.211794358871774E7     9.587514398056406E-1   -2.815084681546419E-1    1.333087168651668E-6    1.548120359677584E-5    7.942168862416032E-6    1.325037361488879E-5    9.585219550276533E-1   -2.833612622135683E-1
 9.611872374474895E7     9.551449099908506E-1   -2.933920768181434E-1    2.783134735770806E-6    1.701077778984181E-5   -3.821166444333150E-7    1.105938370498497E-5    9.546695885083818E-1   -2.952730104061439E-1
 1.001195039007802E8     9.514126715120257E-1   -3.052800221231519E-1   -1.292023634989732E-5    2.608116313008065E-5    4.400380385383576E-6    7.178805465372249E-6    9.507289010229657E-1   -3.071586152396796E-1
 1.041202840568114E8     9.473503163709990E-1   -3.171173322651431E-1    2.403954399416989E-5    2.022729798010210E-5    1.616190954057908E-5    2.023124664793705E-5    9.466123717233147E-1   -3.191164059908576E-1
 1.081210642128426E8     9.432186753603533E-1   -3.290008353388870E-1    1.028213458166119E-5    1.193444870334144E-5   -7.530967600175902E-6    2.184880343704888E-5    9.424869966855244E-1   -3.310896010194795E-1
 1.121218443688738E8     9.390766729799362E-1   -3.407005692800893E-1   -4.016395773410939E-6    2.866484413776231E-5    6.461787435664559E-6    1.806111283907410E-5    9.382032558089922E-1   -3.427234206377308E-1
 1.161226245249050E8     9.349384243251501E-1   -3.521014235567660E-1    2.114903421767552E-5    1.436912750862516E-5    1.379153174088327E-5    1.678533287699696E-5    9.336910446749432E-1   -3.541465931847485E-1
 1.201234046809362E8     9.304487040696133E-1   -3.636188623001020E-1   -1.354619279095415E-5    1.798655850954713E-5   -3.648959778598840E-6    3.326043298081990E-5    9.294844471753929E-1   -3.659015592226868E-1
 1.241241848369674E8     9.260451479110499E-1   -3.750998733464273E-1   -4.825822661831509E-6    2.577048331268760E-5   -2.257130391298502E-6    2.206350606243091E-5    9.248954975782281E-1   -3.774072287140574E-1
 1.281249649929986E8     9.213516451929248E-1   -3.863875099503131E-1    1.632885511522536E-6    1.836843589804049E-5    1.392868953061421E-6    2.238662829364699E-5    9.203235350507898E-1   -3.888940271197716E-1
 1.321257451490298E8     9.165329903579724E-1   -3.976122892878911E-1    1.647951697852940E-5    4.857783815715471E-5    9.346752940378340E-6    1.470953575483660E-5    9.154244085992473E-1   -4.004597224095178E-1
 1.361265253050610E8     9.116549117114944E-1   -4.088063939176779E-1    1.408323026091726E-5    2.311397793533996E-5    1.276251901641792E-5    2.167063696219145E-5    9.106228657852949E-1   -4.117498946947614E-1
 1.401273054610922E8     9.064853151187019E-1   -4.200982207776267E-1    2.409738603049578E-5    3.338436331385027E-5    2.181933860846246E-5    2.800636266326415E-5    9.053195428712859E-1   -4.230421519850968E-1
 1.441280856171234E8     9.012945433739421E-1   -4.311939985027185E-1    1.315115883348105E-5    1.108237098283267E-5    1.535332389870398E-5    3.849988150117780E-5    8.997980137963635E-1   -4.342788455876781E-1
 1.481288657731546E8     8.958476105374960E-1   -4.421551495745219E-1    9.977930357738462E-6    2.165786032865901E-5    2.019546961376230E-5    3.199278743505277E-5    8.941742177090916E-1   -4.454258566219873E-1
 1.521296459291858E8     8.903402982806765E-1   -4.532590441889348E-1    5.541137790235670E-6    1.813581362839322E-5    2.126033156493692E-5    2.697308284280321E-5    8.882710561766769E-1   -4.564311422801112E-1
 1.561304260852171E8     8.846387439988327E-1   -4.642595038506912E-1    7.420491507586384E-6    1.878753904284161E-5    1.545087029976339E-6    3.144070667559146E-5    8.825501075517949E-1   -4.675195899532615E-1
 1.601312062412483E8     8.786282690140014E-1   -4.752082030084141E-1    1.717386353443832E-5    3.198462232468847E-5    9.497726362352387E-6    3.400828103619955E-5    8.763555740869712E-1   -4.786316036481969E-1
 1.641319863972794E8     8.725364747163736E-1   -4.862550585223411E-1    1.187752426925433E-5    3.102193932592378E-5    1.191206397253671E-5    2.710560099308636E-5    8.701320482117988E-1   -4.896205135655524E-1
 1.681327665533107E8     8.662980822329206E-1   -4.972761744806758E-1    2.598177071846721E-5    2.877474312647935E-5    1.160850241302681E-5    3.436617800814773E-5    8.640171411691009E-1   -5.006783912883580E-1
 1.721335467093419E8     8.599304069087507E-1   -5.080782784397971E-1    1.735422557572933E-5    2.011708817772490E-5    1.752780857316689E-5    3.273767204989538E-5    8.579298163253722E-1   -5.113965341953828E-1
 1.761343268653731E8     8.535329789396609E-1   -5.186752647583901E-1    1.904051663219218E-5    3.837343071958087E-5    1.345910786248552E-5    3.923037631945804E-5    8.514285141406839E-1   -5.222721811264908E-1
 1.801351070214043E8     8.469256368261289E-1   -5.293540112162910E-1    2.320595450172171E-5    4.980913741908552E-5    3.223682036071958E-5    3.705534139728362E-5    8.449968501295492E-1   -5.329054860253674E-1
 1.841358871774355E8     8.402122276019091E-1   -5.398329711455238E-1    2.751299384468658E-5    3.416851229492189E-5    1.257526692701003E-5    2.763821405767522E-5    8.382937476102926E-1   -5.434684317075131E-1
 1.881366673334667E8     8.334830483879291E-1   -5.501260506896381E-1    3.086473526765471E-5    2.913875138020437E-5    4.321953376525398E-5    3.320797936197902E-5    8.313070285570251E-1   -5.538253698819400E-1
 1.921374474894979E8     8.267929689352993E-1   -5.603531356773004E-1    2.575194925680597E-5    1.125170251259633E-5    2.465828453889460E-5    2.961680158659773E-5    8.242786707430323E-1   -5.640644550007118E-1
 1.961382276455291E8     8.198113732318759E-1   -5.705520504987780E-1    7.760507065680185E-6    3.389523528293705E-5    3.481404726845674E-5    2.897050099694116E-5    8.171168633851317E-1   -5.740432892009928E-1
 2.001390078015603E8     8.129380455977016E-1   -5.805971426824907E-1    2.321397376437150E-5    2.887476090837312E-5    1.875375006797476E-5    4.195282588395271E-5    8.097428508010592E-1   -5.840840473574370E-1
 2.041397879575915E8     8.057676897748750E-1   -5.905583662123671E-1    6.148912244335181E-6    3.482102965027161E-5    1.292132296962269E-5    1.605260486072632E-5    8.024397092148038E-1   -5.939887481273251E-1
 2.081405681136227E8     7.986153687786248E-1   -6.003588970762669E-1    2.713151294198950E-5    1.832016146522714E-5    5.658401775516020E-6    3.563988380492257E-5    7.948188143784017E-1   -6.037650387955617E-1
 2.121413482696539E8     7.910716048551487E-1   -6.103281999770029E-1    3.446876328418264E-5    2.622360731313736E-5    7.729488075042042E-6    3.638839654706511E-5    7.872554083013634E-1   -6.134752395011098E-1
 2.161421284256851E8     7.832085170158761E-1   -6.200407778674882E-1    3.573428563627481E-5    3.935847477650138E-5    1.148874161054903E-5    2.395174349553576E-5    7.798948878185285E-1   -6.234339426612988E-1
 2.201429085817164E8     7.751937276334510E-1   -6.297171976008242E-1    4.320945867095153E-5    3.228385676037724E-5    2.203884255444056E-5    3.016415694518784E-5    7.718469380474382E-1   -6.330704684710896E-1
 2.241436887377476E8     7.670089092042467E-1   -6.391348085694141E-1    3.884963513721669E-5    2.704253136111026E-5    2.458337332521345E-5    1.991295434418717E-5    7.639385509513796E-1   -6.426747264719771E-1
 2.281444688937787E8     7.589523690855756E-1   -6.483438293536705E-1    2.884245444200913E-5    9.901756773730560E-6    1.641971190184735E-5    2.648837511695667E-5    7.560377359989762E-1   -6.522900002276263E-1
 2.321452490498100E8     7.506810078045442E-1   -6.576515217818054E-1    3.705384660927841E-5    2.763872054748790E-6    2.584229101847914E-5    2.530555775169676E-5    7.476617984874233E-1   -6.616620966244525E-1
 2.361460292058412E8     7.422938413882966E-1   -6.671167924009749E-1    3.932197045830924E-5    2.747233818193738E-5    2.316639638772967E-5    2.900304078124266E-5    7.392201744046881E-1   -6.709258702190546E-1
 2.401468093618724E8     7.338270571842198E-1   -6.764031306772832E-1    2.865965550139389E-5    3.752924913235505E-5    2.027918003668432E-5    4.282477358254377E-5    7.305899407108083E-1   -6.801536505980722E-1
 2.441475895179036E8     7.254719281035035E-1   -6.854373917559494E-1    2.674876342984091E-5    2.594327106711758E-5    5.539583618503718E-5    2.555554082181684E-5    7.218212455765479E-1   -6.891239890462412E-1
 2.481483696739348E8     7.171684401962311E-1   -6.946061775353277E-1    4.198479276633205E-5    5.868816907034287E-5    2.536867115410528E-5    2.413958444150129E-5    7.128607420145992E-1   -6.981723928970542E-1
 2.521491498299660E8     7.086620137724110E-1   -7.037421106127363E-1    3.052840042328008E-5    3.766528558891790E-5    3.997576641570998E-5    3.052405533230572E-6    7.041337204376661E-1   -7.071544178045223E-1
 2.561499299859972E8     6.997243884122306E-1   -7.127118419030937E-1    3.831333495200764E-5    4.587501919296339E-5    2.768989560105914E-5    2.605226725225042E-5    6.950728910979676E-1   -7.159527282671148E-1
 2.601507101420284E8     6.908919215640803E-1   -7.213734777411556E-1    4.937374820310425E-5    5.327473276162488E-5    3.758024103260638E-5    2.194497484244604E-5    6.860095230153134E-1   -7.244490104551667E-1
 2.641514902980596E8     6.819618705180689E-1   -7.299999553416748E-1    4.118200773934104E-5    4.964346163560583E-5    3.401441458732347E-5    2.277000926823075E-5    6.770243123277919E-1   -7.330934383282851E-1
 2.681522704540908E8     6.727632090078471E-1   -7.382842267804577E-1    4.540844925963235E-5    5.602787671184853E-5    2.442342283877580E-5    3.605868208799956E-5    6.677150454951986E-1   -7.415025761696462E-1
 2.721530506101220E8     6.634052093310335E-1   -7.464766215128181E-1    2.943409306873550E-5    3.411415846517042E-5    3.201469473685541E-5    3.476669194433919E-5    6.583812227542810E-1   -7.499374339509414E-1
 2.761538307661532E8     6.541910836801409E-1   -7.544201462869318E-1    4.630826015860651E-5    4.424150275981491E-5    3.196755844156342E-5    4.534286932878007E-5    6.489789263088827E-1   -7.581028984751334E-1
 2.801546109221845E8     6.446072380840277E-1   -7.623194357872283E-1    4.881931774519097E-5    4.460642654805287E-5    3.343325940336078E-5    2.286684113931310E-5    6.395408096639994E-1   -7.661677589037802E-1
 2.841553910782157E8     6.350606104130481E-1   -7.700363158869801E-1    2.592440277276309E-5    4.470075246375057E-5    4.936755383390936E-5    4.863667924128396E-5    6.299426316391861E-1   -7.738312732664388E-1
 2.881561712342469E8     6.253025672410844E-1   -7.776151993981336E-1    4.242572099447618E-5    4.140860654901307E-5    4.043144901941833E-5    3.842902450297827E-5    6.200519159045530E-1   -7.814844423297611E-1
 2.921569513902780E8     6.155966476419410E-1   -7.852516074319379E-1    3.834397347504401E-5    5.682635238563807E-5    5.626601552832253E-5    3.374525179885952E-5    6.100983455769238E-1   -7.890135970314113E-1
 2.961577315463092E8     6.056234953740383E-1   -7.928329033662678E-1    3.714347239326493E-5    4.234634765148711E-5    5.742167329967004E-5    5.383300088741092E-5    6.000612384639176E-1   -7.965637361109478E-1
 3.001585117023405E8     5.958844912418110E-1   -8.004101363516410E-1    3.416479343229934E-5    3.519698586327383E-5    5.921532845361018E-5    2.847897160573082E-5    5.900530781084514E-1   -8.039062460192119E-1
 3.041592918583717E8     5.859192722526332E-1   -8.077512970206207E-1    5.395338187922374E-5    4.670948237380602E-5    4.388148005816300E-5    2.451638267030361E-5    5.799369379594286E-1   -8.111667199234981E-1
 3.081600720144029E8     5.758446554636503E-1   -8.151808762348448E-1    6.597462426566602E-5    5.398426567687102E-5    5.180847199376687E-5    4.800697600115040E-5    5.695791794931772E-1   -8.183307327213119E-1
 3.121608521704341E8     5.655558385993287E-1   -8.224514903567073E-1    4.659196050093633E-5    4.502417122192734E-5    5.834720866861315E-5    4.476237990767884E-5    5.590309241893731E-1   -8.254919083169948E-1
 3.161616323264653E8     5.553292385305203E-1   -8.296389382917364E-1    6.220875160506937E-5    3.689464866199501E-5    6.645321978071986E-5    3.735527603279496E-5    5.486361418321222E-1   -8.327098577723228E-1
 3.201624124824965E8     5.448499851831149E-1   -8.366572308000770E-1    6.161552553811922E-5    4.349687056893494E-5    6.189456992245548E-5    2.303324267850643E-5    5.380158143134641E-1   -8.396924345855926E-1
 3.241631926385277E8     5.342248208353509E-1   -8.434620841800433E-1    8.145385474950266E-5    5.662265267225948E-5    7.872033403890597E-5    3.731374501792542E-5    5.272440481397533E-1   -8.467053245706419E-1
 3.281639727945589E8     5.235606873815736E-1   -8.499451816396866E-1    7.953596308854230E-5    4.556200692332084E-5    8.553448515857800E-5    3.270646150675838E-5    5.165040878385375E-1   -8.529926443631920E-1
 3.321647529505901E8     5.127632731358609E-1   -8.562258819078105E-1    9.480600226608619E-5    4.145595380859979E-5    1.052409085629664E-4    3.865651802647079E-5    5.057466279131264E-1   -8.593808149025353E-1
 3.361655331066213E8     5.021561301690819E-1   -8.622715940807090E-1    8.872461788624761E-5    2.160749579225070E-5    7.594078164828510E-5    4.330175539178061E-5    4.949385850851680E-1   -8.654868104214321E-1
 3.401663132626525E8     4.913887713851245E-1   -8.684440772589580E-1    9.357497016466843E-5    1.448942911812757E-5    1.084411027985884E-4    3.419806251712973E-5    4.842111782947055E-1   -8.716570950627084E-1
 3.441670934186838E8     4.806097666099064E-1   -8.745898793152511E-1    9.600926870941755E-5    2.869837931418668E-5    9.429345908212601E-5    1.276445644169220E-6    4.735401462455897E-1   -8.774943844811957E-1
 3.481678735747150E8     4.696893696717271E-1   -8.805395758047629E-1    8.646423917873441E-5   -1.320157662682719E-5    9.155396548750547E-5    1.415857594932818E-6    4.626584884404607E-1   -8.832188278748836E-1
 3.521686537307462E8     4.587748364021998E-1   -8.864637199612522E-1    9.469645479721122E-5   -4.283151462766804E-6    7.954741048655606E-5   -2.115587369499055E-5    4.514773893643289E-1   -8.889057610256079E-1
 3.561694338867773E8     4.475780414171753E-1   -8.921850251841066E-1    8.075130071597929E-5   -9.448353724071264E-6    7.308038407773327E-5   -1.807262756620259E-5    4.401853781717992E-1   -8.941717783908217E-1
 3.601702140428085E8     4.365865129444627E-1   -8.976819761994263E-1    5.475889584437929E-5   -3.016319571195897E-5    6.287910360668659E-5   -1.702957169637985E-5    4.289111793828552E-1   -8.994531472150443E-1
