#  HZ   S   RI   R     50.00 
! Rohde & Schwarz Vector Network Analyzer 
! Rohde-Schwarz,ZNB20-2Port,1311601062101763,2.70
! Created: UTC 3/9/2022, 3:44:42 PM
! freq[Hz]                re:S11                  im:S11                  re:S21                  im:S21                  re:S12                  im:S12                  re:S22                  im:S22
 1.000000000000000E5    -1.000981393820880      -1.743218674207122E-3   -3.625615749368608E-5   -2.217292793517633E-4   -1.872836110848194E-4   -2.728392563260873E-5   -1.000587115572693      -9.620275828351238E-4
 4.100780156031206E6    -9.992536196778761E-1    1.299864580958767E-2   -5.807742662778995E-6   -1.988020481835662E-6   -6.584652878599034E-6    1.957034805648573E-6   -9.987885875669169E-1    1.361425656728479E-2
 8.101560312062413E6    -9.990656771775880E-1    2.586700776215427E-2   -3.962009702259089E-7    5.414025790701879E-7    5.734858062201723E-6   -1.232744213172651E-5   -9.983919565583674E-1    2.606482531146825E-2
 1.210234046809362E7    -9.984011375865385E-1    3.850254761030347E-2    6.917806113843375E-6    9.818499642911769E-6    4.257245436725441E-7    1.028345959567182E-5   -9.979275782894661E-1    3.878737869884658E-2
 1.610312062412483E7    -9.977432309992887E-1    5.123183301938907E-2   -6.360928920760936E-6   -1.200775586771225E-6   -1.103971081927753E-5   -8.962114903209375E-6   -9.973749725732466E-1    5.134805740852818E-2
 2.010390078015603E7    -9.969762371703091E-1    6.401549657436491E-2    9.525197945776322E-7   -3.612366916246794E-6   -1.930216666307126E-5    1.169508733882754E-5   -9.966055404532375E-1    6.389613691587688E-2
 2.410468093618724E7    -9.961049464982599E-1    7.658764206394103E-2   -6.791575917124544E-6   -1.938353336009295E-5    8.774457261738095E-6    1.471582827091779E-5   -9.957320203472485E-1    7.680274698206480E-2
 2.810546109221844E7    -9.943248536745066E-1    8.920742793718819E-2   -7.143286844156508E-6   -8.887411258039381E-6    1.525298308894250E-5    1.753196193576743E-6   -9.941958193514571E-1    8.962645276081570E-2
 3.210624124824965E7    -9.931517466306882E-1    1.013160235639722E-1   -2.890239364445350E-6    1.323392548160514E-5    5.327591565213359E-6   -1.274283502368778E-5   -9.924356405353688E-1    1.020292331736074E-1
 3.610702140428086E7    -9.915011852990139E-1    1.136035560058720E-1   -4.935721480466692E-6   -7.994568320407340E-6    9.307391605410118E-6    2.822911339459478E-6   -9.910747316780414E-1    1.141130300468825E-1
 4.010780156031206E7    -9.900199226735792E-1    1.259627350760593E-1   -1.154592471628282E-5    2.145771725866221E-6    9.573120964917365E-6   -1.411753345771895E-5   -9.894903594831266E-1    1.267128029969881E-1
 4.410858171634327E7    -9.881944869192691E-1    1.384048188928177E-1    6.396375215848204E-7   -7.888451313148065E-6   -2.255984654326708E-5   -1.495745631611987E-5   -9.874853421733830E-1    1.390935856708983E-1
 4.810936187237448E7    -9.862348318926595E-1    1.508119237458467E-1   -1.431250841095038E-7   -4.558843666961759E-6    7.571567424162712E-6   -1.028288467409897E-5   -9.855552085360561E-1    1.517111735310481E-1
 5.211014202840568E7    -9.842426093161921E-1    1.632176475273461E-1    1.494150209281155E-5   -2.149452144481966E-6   -3.358005986489030E-6    1.784315401351277E-5   -9.834668749799000E-1    1.640961377920104E-1
 5.611092218443689E7    -9.821151091220449E-1    1.756728353681801E-1    1.359243994505963E-5   -6.426272532102950E-6    9.124481533357630E-7    3.910320410711437E-7   -9.813521937073483E-1    1.765604611499338E-1
 6.011170234046809E7    -9.797710038375231E-1    1.879273080550247E-1    2.040983697512475E-6    1.235245114873947E-5   -7.326528730624372E-7   -8.994501854842611E-6   -9.791216514028773E-1    1.889209903923901E-1
 6.411248249649930E7    -9.771271986944887E-1    2.003106501668978E-1   -2.562099458564824E-5   -1.217444808835567E-5   -2.758236116332123E-5   -1.321293588414424E-5   -9.767258001193361E-1    2.012293863966279E-1
 6.811326265253051E7    -9.744639766585226E-1    2.126607558503768E-1    4.221929350525369E-6    1.439011657592372E-5    2.951286983026569E-6    2.491339792485867E-5   -9.741399728996140E-1    2.133872749317204E-1
 7.211404280856171E7    -9.714044835841460E-1    2.250981442609857E-1   -2.705520370925254E-6    5.902888275868451E-6   -5.694956785063269E-6    1.063724504719756E-5   -9.712522679884396E-1    2.256150889206209E-1
 7.611482296459292E7    -9.682911551098313E-1    2.370595591720884E-1    1.325855056377084E-5    1.529635940492710E-5    5.195370962294057E-6    8.714559484332976E-6   -9.679834014805978E-1    2.378277782947761E-1
 8.011560312062413E7    -9.651528812470162E-1    2.490910509191160E-1    1.402194430663253E-6    1.939752429468292E-5   -1.407804253662407E-5    8.596124465364422E-6   -9.646749364347561E-1    2.500501729502830E-1
 8.411638327665533E7    -9.617423832834604E-1    2.609610520565815E-1   -1.180917176624207E-5   -1.124987888249072E-7    1.207993062613386E-5   -6.010435312478690E-7   -9.610963997117629E-1    2.620830850733396E-1
 8.811716343268654E7    -9.583171316648586E-1    2.729634686812279E-1    4.291229547199426E-6   -9.314399386573023E-7    8.791827586948250E-6    8.661536794215341E-6   -9.575311536018599E-1    2.740514005824375E-1
 9.211794358871774E7    -9.547334385336140E-1    2.848411837232883E-1   -6.150124844113186E-6    1.461462340524863E-5    5.253759964797748E-6    7.816102847469545E-6   -9.538527840785057E-1    2.859830365924998E-1
 9.611872374474895E7    -9.512103072742932E-1    2.968031041050528E-1   -5.184115681674673E-6   -3.276449783833489E-6    1.161636732115796E-5    1.590304758831983E-9   -9.500889482190111E-1    2.978562485458984E-1
 1.001195039007802E8    -9.473276557881585E-1    3.084559564989393E-1   -1.163541075649445E-5   -8.517144197387771E-6   -7.844833767473414E-6    1.312990784980076E-5   -9.463524782350049E-1    3.097036304695227E-1
 1.041202840568114E8    -9.432722776646337E-1    3.201501701907284E-1    5.089573545364524E-6    3.858238478249306E-6    8.874945623337540E-6    1.229342270453937E-5   -9.425239923357696E-1    3.215337732735913E-1
 1.081210642128426E8    -9.392714670683537E-1    3.319686447307919E-1    9.434148354272926E-6    8.711213528434792E-6    6.410998305098163E-6    1.156610550768477E-5   -9.384943644510408E-1    3.334206844110887E-1
 1.121218443688738E8    -9.349441496102326E-1    3.437324724389953E-1    3.587489869308826E-6    1.392207608600402E-5    8.043139543238845E-7    7.114338563804653E-6   -9.344346942514752E-1    3.451671135036650E-1
 1.161226245249050E8    -9.305643760444697E-1    3.553037711164332E-1    1.060369828221369E-6    2.748254432727856E-6    2.307534600925456E-5    9.179870933287860E-6   -9.298287913062519E-1    3.567814581296281E-1
 1.201234046809362E8    -9.259693010252025E-1    3.670131931894163E-1   -3.677220179430416E-6   -4.713903708330381E-7    2.205395099253951E-6    2.172742160740015E-5   -9.249702591336241E-1    3.685832950065818E-1
 1.241241848369674E8    -9.209595174755775E-1    3.786815141970464E-1    1.457087750424967E-5   -3.185173723681354E-6    8.993007470116446E-6    9.340987628117574E-6   -9.199890772924555E-1    3.801362762961154E-1
 1.281249649929986E8    -9.161044939358994E-1    3.902104863997448E-1    1.238626090004357E-5    9.762974257099087E-6   -7.677674724540775E-8    9.657750607717533E-6   -9.148428448890947E-1    3.915517017010100E-1
 1.321257451490298E8    -9.108558692826543E-1    4.017683179109534E-1    6.197297119308780E-6    1.298816890177676E-6    4.347249297737803E-6    1.903151621339296E-5   -9.094975766578569E-1    4.029611832965661E-1
 1.361265253050610E8    -9.053850058582358E-1    4.133671869542364E-1    2.161575742759396E-7    8.703642545954945E-6    1.576534991712043E-5    5.633650503143746E-6   -9.042314822885585E-1    4.143452695709638E-1
 1.401273054610922E8    -8.999577344271776E-1    4.247715569798779E-1    2.713806428011611E-6   -1.287589862798930E-5    8.377944637610836E-6   -6.596149839752391E-6   -8.987085090543275E-1    4.257539980823857E-1
 1.441280856171234E8    -8.942698760448625E-1    4.362000430117399E-1    5.858522279500862E-6    5.144526327002651E-6   -4.385327297870041E-6    1.386043631945856E-6   -8.933733803041203E-1    4.370772168236354E-1
 1.481288657731546E8    -8.885551725614940E-1    4.473848170980840E-1    1.194251168268716E-5    7.419845567043796E-7   -7.081616640203259E-6   -5.323910404478434E-6   -8.877609380747565E-1    4.483364954785278E-1
 1.521296459291858E8    -8.828493681725625E-1    4.582205837029456E-1   -8.557537663976871E-6    4.347307684109142E-6   -2.697379055131490E-7    9.427383616765884E-6   -8.823550458248145E-1    4.594441892114716E-1
 1.561304260852171E8    -8.770998616294854E-1    4.689922066716064E-1   -1.206320572620002E-5    4.511530541915737E-6    2.038503242340648E-6   -1.001345520738487E-5   -8.766018494519094E-1    4.705208447961607E-1
 1.601312062412483E8    -8.712325173207965E-1    4.798453676775228E-1   -2.589603767275097E-6   -5.124685763510431E-6   -8.405519917432547E-6    9.867977194670572E-6   -8.705903618815930E-1    4.813772892007091E-1
 1.641319863972794E8    -8.653996928841850E-1    4.907118321361352E-1   -1.305233104276813E-5   -1.054296411799899E-5   -3.067224792961420E-6    3.908787846909256E-6   -8.646060913257212E-1    4.922587753285438E-1
 1.681327665533107E8    -8.593479560832287E-1    5.012577556991158E-1   -1.065670102065622E-5   -1.907288187042552E-5   -1.279572518108448E-5    4.126049809653896E-6   -8.581457325796283E-1    5.027994979850494E-1
 1.721335467093419E8    -8.531112074412686E-1    5.116759077597718E-1   -8.945395155670806E-6   -1.245194660145352E-5   -1.591989842280067E-5   -1.781171203844449E-5   -8.515686389283165E-1    5.133137374003221E-1
 1.761343268653731E8    -8.467109689493525E-1    5.221450533142785E-1   -4.033638319400250E-5   -9.184493261686098E-6   -2.888646929304144E-5   -5.991594296126969E-6   -8.446846849273915E-1    5.237617555138527E-1
 1.801351070214043E8    -8.399687107290332E-1    5.325538780184018E-1   -3.314534197367222E-5   -5.899031149933839E-6   -6.484370284945942E-5   -1.156813641819076E-5   -8.378964129194780E-1    5.340755922365866E-1
 1.841358871774355E8    -8.332622372697177E-1    5.428161000489004E-1   -6.605612300371041E-5   -1.177237238407380E-6   -5.176184357847400E-5    9.333864617409458E-6   -8.308301464969551E-1    5.444538527129801E-1
 1.881366673334667E8    -8.259843580114741E-1    5.530237130683675E-1   -1.228140790097339E-4    4.320500648736452E-5   -1.058636421180349E-4    4.725389378208665E-5   -8.239259101490455E-1    5.547347528165945E-1
 1.921374474894979E8    -8.187639523324841E-1    5.633571840424512E-1   -2.884772208021685E-5    1.261913513673754E-4   -2.342553835240810E-5    1.255798368931836E-4   -8.170384555170490E-1    5.652432815480605E-1
 1.961382276455291E8    -8.113773629739369E-1    5.736051327994117E-1    2.567944381139389E-5    8.674311965543498E-5    9.918111602650839E-6    8.368519737235294E-5   -8.100639110840835E-1    5.756948447972655E-1
 2.001390078015603E8    -8.038113884925823E-1    5.838203009426687E-1    1.198566417066829E-5    6.379961678377168E-5    1.360171657634202E-5    5.039760506303288E-5   -8.025723530635835E-1    5.860275957893348E-1
 2.041397879575915E8    -7.962581859241943E-1    5.939344451532354E-1    3.001015531988269E-5    5.341104776522417E-5    9.802236082827680E-6    4.736954866580819E-5   -7.949767174389962E-1    5.964185061120879E-1
 2.081405681136227E8    -7.886217910909583E-1    6.038124786267629E-1    1.470128305896691E-5    3.620501740201190E-5    1.431054625270583E-5    3.567472844248680E-5   -7.874751093489262E-1    6.064934391794244E-1
 2.121413482696539E8    -7.809777085419026E-1    6.137676736307797E-1   -1.952763425141199E-7    3.082909416922771E-5    1.294279986935651E-5    1.813864419209892E-5   -7.796594002974309E-1    6.163881582879511E-1
 2.161421284256851E8    -7.733482099154164E-1    6.236480469286589E-1   -3.233341612332921E-6    2.019045954243737E-5    1.443619935298150E-5    2.896248003672892E-5   -7.716666866223595E-1    6.258910123391828E-1
 2.201429085817164E8    -7.653885081718037E-1    6.333346747473411E-1   -2.037077219485652E-5    5.254058063335395E-5   -4.332517902644641E-5    2.894941955848065E-5   -7.633983717460409E-1    6.354682252366041E-1
 2.241436887377476E8    -7.574696931887542E-1    6.426527570389767E-1   -2.022853130764583E-5    6.897201426569929E-5   -5.697639841862020E-6    6.843196727482751E-5   -7.551636208276399E-1    6.449682403737986E-1
 2.281444688937787E8    -7.496210932294000E-1    6.519754521286071E-1    1.672429182748874E-6    6.460502579949325E-5    1.984680301003245E-5    7.624239564259934E-5   -7.468588324346089E-1    6.538745793662925E-1
 2.321452490498100E8    -7.415654957549026E-1    6.610840922529624E-1    1.187567722349645E-5    6.166959482701694E-5    2.309430142893140E-5    3.899041181483926E-5   -7.387077828415605E-1    6.632225831540946E-1
 2.361460292058412E8    -7.333634227340541E-1    6.699730766938772E-1    4.758434696357486E-5    3.864379576038892E-5    2.865504693363279E-5    4.803479960295166E-5   -7.307190017456078E-1    6.723202009235827E-1
 2.401468093618724E8    -7.252228278939984E-1    6.790041035403741E-1    2.820858440522156E-6    3.610218766033382E-5    3.754378257813814E-5    4.809454906901233E-5   -7.224955159596534E-1    6.814412373350741E-1
 2.441475895179036E8    -7.165471273677119E-1    6.881042078110273E-1    3.940404735503132E-5    4.414104450784852E-5    2.288015932849814E-5    3.499456679391048E-5   -7.140925370536577E-1    6.905154486669134E-1
 2.481483696739348E8    -7.076084300417981E-1    6.969635691099538E-1    3.551692847926472E-5    3.365525341151311E-5    4.387127353629979E-5    3.355631349151887E-5   -7.052758539454569E-1    6.995222035722092E-1
 2.521491498299660E8    -6.983985286831272E-1    7.055478539337590E-1    2.370643475730298E-5    4.031412139666013E-5    3.845332569058241E-5    3.077989009317308E-5   -6.965685984119695E-1    7.082432498298187E-1
 2.561499299859972E8    -6.893768859372866E-1    7.139959209203106E-1    2.999438172211970E-5    4.849089940616705E-5    3.576751271413988E-5    3.531337606984099E-5   -6.874997815885385E-1    7.168410500309407E-1
 2.601507101420284E8    -6.802691050785322E-1    7.223679163234442E-1    2.756759554293052E-5    3.776502729261859E-5    2.181640832871855E-5    4.459597729057209E-5   -6.784461875238256E-1    7.252320009837656E-1
 2.641514902980596E8    -6.710974340854014E-1    7.306686399023799E-1    2.965584329371135E-5    4.015542266876464E-5    1.607489997205938E-5    1.377282348124548E-5   -6.690447502103148E-1    7.334125296426830E-1
 2.681522704540908E8    -6.617679918695828E-1    7.389928131457342E-1    4.410529455792485E-5    3.800699427411570E-5    5.611497105000661E-5    3.452218768348529E-5   -6.597595222061794E-1    7.415314997203281E-1
 2.721530506101220E8    -6.526151504124561E-1    7.473259255584076E-1    4.145554861073733E-5    3.274865647549803E-5    2.396776740938931E-5    1.250125531358402E-5   -6.502751584980820E-1    7.496383041197294E-1
 2.761538307661532E8    -6.431478358739280E-1    7.556585141413306E-1    3.056401325396034E-5    1.071940805885780E-5    4.056103365884648E-5    1.802475525251856E-5   -6.407325612498973E-1    7.577838184371308E-1
 2.801546109221845E8    -6.336393755336828E-1    7.637884064312341E-1    2.971600349921206E-5    2.019493212122349E-5    6.600683691786172E-6    1.996009038694561E-5   -6.310841761665976E-1    7.657805365593018E-1
 2.841553910782157E8    -6.239238457489104E-1    7.718302494768358E-1    2.395202033454401E-5    1.123551840215259E-5    2.260424132601385E-5    1.720367625663258E-5   -6.215075088389869E-1    7.736186413677693E-1
 2.881561712342469E8    -6.141955619801578E-1    7.797368470895221E-1    2.054199842152683E-5    9.057150516674082E-6    1.386631405009812E-5    4.912601913685329E-6   -6.115889890793282E-1    7.815048521926785E-1
 2.921569513902780E8    -6.042434940552370E-1    7.876130919471885E-1    8.875248039235051E-6    1.317102659223082E-5    4.820555725762227E-6    8.207142192384674E-6   -6.019146917403072E-1    7.893770669040096E-1
 2.961577315463092E8    -5.942917404268645E-1    7.949874075674401E-1    9.798511306396477E-6    2.113262516820286E-5    2.443169174378564E-5    6.532779787771065E-6   -5.918877530988805E-1    7.970077953015133E-1
 3.001585117023405E8    -5.840964283954251E-1    8.021753247708244E-1   -1.294012974616356E-5    6.354492148844016E-6    4.605331972199130E-7   -4.383656730633229E-6   -5.818387781456313E-1    8.043271222838949E-1
 3.041592918583717E8    -5.739817846831168E-1    8.091227199144042E-1   -2.817086185074414E-6    1.049310231886279E-5   -4.472364111210990E-6    1.412005019337477E-5   -5.716979783059731E-1    8.115604978900610E-1
 3.081600720144029E8    -5.636906259262561E-1    8.158480688402933E-1   -7.356527840816517E-6    3.320736170866517E-6   -3.411486731788596E-6   -3.366480953872085E-6   -5.615051483647774E-1    8.184501628058587E-1
 3.121608521704341E8    -5.536731826990382E-1    8.225324985273400E-1   -2.149499464596909E-5    6.235920546610566E-6   -1.492685463730584E-5   -6.483284969946915E-6   -5.513489056076328E-1    8.251708166536267E-1
 3.161616323264653E8    -5.433270784597215E-1    8.289892843257946E-1   -5.295294770223303E-5   -6.806635799815130E-6   -3.300715454158765E-5    1.602686223180487E-5   -5.408419524487069E-1    8.318328842434833E-1
 3.201624124824965E8    -5.329956498516019E-1    8.355519883016148E-1   -6.693712237873701E-5    2.269834102682804E-5   -6.971046186888357E-5    9.323901523535337E-6   -5.303717654385083E-1    8.382872892399954E-1
 3.241631926385277E8    -5.226100414535455E-1    8.419569022399814E-1   -8.477918150340972E-5    3.651682185577793E-5   -7.687154148349123E-5    4.685683697962431E-5   -5.199537735575751E-1    8.446801600952688E-1
 3.281639727945589E8    -5.119766794970984E-1    8.481865733719493E-1   -1.182970197329229E-4    6.816254228718994E-5   -1.192719934252208E-4    7.881628848809211E-5   -5.094583569526060E-1    8.509962021996114E-1
 3.321647529505901E8    -5.016741158609651E-1    8.546015601542623E-1   -1.006637433335593E-4    1.502848927897662E-4   -1.070482445375557E-4    1.573176145714352E-4   -4.988671199529979E-1    8.573140317322493E-1
 3.361655331066213E8    -4.909248403649277E-1    8.609201026337841E-1   -3.196033665645187E-5    2.278579937888346E-4   -4.079451739899224E-5    2.317485843647117E-4   -4.880422035850563E-1    8.635603118922224E-1
 3.401663132626525E8    -4.801031478702023E-1    8.671946821593487E-1    5.968630635006826E-5    2.119902497301997E-4    6.748523167792699E-5    2.057741746548967E-4   -4.769756733735147E-1    8.698348880031475E-1
 3.441670934186838E8    -4.691127430834039E-1    8.733419787258148E-1    1.140925781994100E-4    1.671457183061184E-4    9.733433102602124E-5    1.629709370766393E-4   -4.657585692346242E-1    8.759067392156574E-1
 3.481678735747150E8    -4.581769342546773E-1    8.792709967009311E-1    1.136583414147594E-4    1.373904959145786E-4    1.173243422720821E-4    1.251378192786573E-4   -4.546499660141502E-1    8.817491851117735E-1
 3.521686537307462E8    -4.469510290564892E-1    8.848239292632532E-1    1.250794103617559E-4    1.109262005804964E-4    1.362247180987958E-4    1.196826007684113E-4   -4.434148988322388E-1    8.874975558718572E-1
 3.561694338867773E8    -4.358319478745469E-1    8.903287548701466E-1    1.296458760792336E-4    8.564864052022360E-5    1.238892183465037E-4    8.473414305032063E-5   -4.323190095737010E-1    8.929697553574535E-1
 3.601702140428085E8    -4.245902087567718E-1    8.957893601141626E-1    1.254395601494554E-4    6.491781393307559E-5    1.362097499450969E-4    7.034483683167381E-5   -4.209258438768140E-1    8.982598759060981E-1
